 (1742739615.713974)  can0  1DB   [8]  7F E0 FF C6 00 00 00 DE
 (1742739615.724054)  can0  1DB   [8]  00 00 FF C6 00 00 01 91
 (1742739615.734135)  can0  1DB   [8]  00 00 FF C6 00 00 02 9B
 (1742739615.743877)  can0  1DB   [8]  00 00 FF C6 00 00 03 1E
 (1742739615.754986)  can0  1DB   [8]  00 00 C1 86 00 00 00 E8
 (1742739615.763953)  can0  1DB   [8]  00 00 C1 86 00 00 01 6D
 (1742739615.773976)  can0  1DB   [8]  00 00 C1 86 00 00 02 67
 (1742739615.784194)  can0  1DB   [8]  00 00 C1 86 00 00 03 E2
 (1742739615.793721)  can0  1DB   [8]  00 00 C1 86 00 00 00 E8
 (1742739615.803862)  can0  1DB   [8]  00 00 C1 86 00 00 01 6D
 (1742739615.813687)  can0  1DB   [8]  00 00 C1 A6 00 00 02 28
 (1742739615.824300)  can0  1DB   [8]  00 00 C1 A6 00 00 03 AD
 (1742739615.833708)  can0  1DB   [8]  00 00 C1 A6 00 00 00 A7
 (1742739615.843639)  can0  1DB   [8]  00 00 C1 A6 00 00 01 22
 (1742739615.853701)  can0  1DB   [8]  00 00 C1 A6 00 00 02 28
 (1742739615.864184)  can0  1DB   [8]  00 00 C1 A6 00 00 03 AD
 (1742739615.873835)  can0  1DB   [8]  00 00 C1 A6 00 00 00 A7
 (1742739615.883648)  can0  1DB   [8]  00 00 C1 A6 00 00 01 22
 (1742739615.894297)  can0  1DB   [8]  00 00 C1 A6 00 00 02 28
 (1742739615.904561)  can0  1DB   [8]  00 00 C1 A6 00 00 03 AD
 (1742739615.914233)  can0  1DB   [8]  00 00 C1 A6 00 00 00 A7
 (1742739615.923921)  can0  1DB   [8]  00 00 C1 A6 00 00 01 22
 (1742739615.933650)  can0  1DB   [8]  00 00 C1 A6 00 00 02 28
 (1742739615.943987)  can0  1DB   [8]  00 00 C1 A6 00 00 03 AD
 (1742739615.953922)  can0  1DB   [8]  00 00 C1 A6 00 00 00 A7
 (1742739615.964163)  can0  1DB   [8]  00 00 C1 A6 00 00 01 22
 (1742739615.973934)  can0  1DB   [8]  00 00 C1 EE 00 00 02 06
 (1742739615.984144)  can0  1DB   [8]  00 00 C1 EE 00 00 03 83
 (1742739615.993926)  can0  1DB   [8]  00 00 C1 EE 00 00 00 89
 (1742739616.004395)  can0  1DB   [8]  00 00 C1 EE 00 00 01 0C
 (1742739616.013956)  can0  1DB   [8]  00 00 C1 EE 00 00 02 06
 (1742739616.023590)  can0  1DB   [8]  00 00 C1 EE 00 00 03 83
 (1742739616.033729)  can0  1DB   [8]  00 00 C1 EE 00 00 00 89
 (1742739616.044496)  can0  1DB   [8]  00 00 C1 EE 00 00 01 0C
 (1742739616.053681)  can0  1DB   [8]  00 00 C1 EE 00 00 02 06
 (1742739616.063876)  can0  1DB   [8]  00 00 C1 EE 00 00 03 83
 (1742739616.073462)  can0  1DB   [8]  00 20 C1 EE 00 00 00 D8
 (1742739616.083594)  can0  1DB   [8]  00 20 C1 EE 00 00 01 5D
 (1742739616.093542)  can0  1DB   [8]  00 20 C1 EE 00 00 02 57
 (1742739616.103795)  can0  1DB   [8]  00 20 C1 EE 00 00 03 D2
 (1742739616.113755)  can0  1DB   [8]  00 20 C1 EE 00 00 00 D8
 (1742739616.123735)  can0  1DB   [8]  00 20 C1 EE 00 00 01 5D
 (1742739616.133912)  can0  1DB   [8]  00 20 C1 EE 00 00 02 57
 (1742739616.143945)  can0  1DB   [8]  00 20 C1 EE 00 00 03 D2
 (1742739616.154338)  can0  1DB   [8]  00 20 C1 EE 00 00 00 D8
 (1742739616.164595)  can0  1DB   [8]  00 00 C1 EE 00 00 01 0C
 (1742739616.174567)  can0  1DB   [8]  00 00 C1 EE 00 00 02 06
 (1742739616.183936)  can0  1DB   [8]  00 00 C1 EE 00 00 03 83
 (1742739616.193904)  can0  1DB   [8]  00 00 C1 EE 00 00 00 89
 (1742739616.204126)  can0  1DB   [8]  00 00 C1 EE 00 00 01 0C
 (1742739616.213970)  can0  1DB   [8]  00 00 C1 EE 00 00 02 06
 (1742739616.223669)  can0  1DB   [8]  00 00 C1 EE 00 00 03 83
 (1742739616.233566)  can0  1DB   [8]  00 00 C1 EE 00 00 00 89
 (1742739616.243545)  can0  1DB   [8]  00 00 C1 EE 00 00 01 0C
 (1742739616.253681)  can0  1DB   [8]  00 00 C1 EE 00 00 02 06
 (1742739616.263784)  can0  1DB   [8]  00 00 C1 EE 00 00 03 83
 (1742739616.274040)  can0  1DB   [8]  00 00 C1 EE 00 00 00 89
 (1742739616.283616)  can0  1DB   [8]  00 00 C1 EE 00 00 01 0C
 (1742739616.294184)  can0  1DB   [8]  00 00 C1 EE 00 00 02 06
 (1742739616.304065)  can0  1DB   [8]  FF E0 C1 EE 00 00 03 C3
 (1742739616.313689)  can0  1DB   [8]  FF C0 C1 EE 00 00 00 98
 (1742739616.323636)  can0  1DB   [8]  FF 80 C1 EE 00 00 01 BF
 (1742739616.333605)  can0  1DB   [8]  FF 60 C1 AE 00 00 02 19
 (1742739616.344004)  can0  1DB   [8]  FF 40 C1 AE 00 00 03 CD
 (1742739616.354020)  can0  1DB   [8]  FF 20 C1 AE 00 00 00 34
 (1742739616.363540)  can0  1DB   [8]  FF 00 C1 AE 00 00 01 E0
 (1742739616.373643)  can0  1DB   [8]  FF 00 C1 AE 00 00 02 EA
 (1742739616.383573)  can0  1DB   [8]  FF 00 C1 AE 00 00 03 6F
 (1742739616.393554)  can0  1DB   [8]  FF 00 C1 AE 00 00 00 65
 (1742739616.404204)  can0  1DB   [8]  FF 20 C1 AE 00 00 01 B1
 (1742739616.413537)  can0  1DB   [8]  FF 60 C1 AA 00 00 02 41
 (1742739616.423530)  can0  1DB   [8]  FF 80 C1 AA 00 00 03 F6
 (1742739616.434181)  can0  1DB   [8]  FF A0 C1 AA 00 00 00 AD
 (1742739616.443437)  can0  1DB   [8]  FF A0 C1 AA 00 00 01 28
 (1742739616.454205)  can0  1DB   [8]  FF C0 C1 AA 00 00 02 D1
 (1742739616.464106)  can0  1DB   [8]  FF E0 C1 AA 00 00 03 05
 (1742739616.473925)  can0  1DB   [8]  FF E0 C1 AA 00 00 00 0F
 (1742739616.483591)  can0  1DB   [8]  FF E0 C1 AA 00 00 01 8A
 (1742739616.493940)  can0  1DB   [8]  FF E0 C1 AA 00 00 02 80
 (1742739616.503721)  can0  1DB   [8]  FF E0 C1 AA 00 00 03 05
 (1742739616.513553)  can0  1DB   [8]  FF E0 C1 AA 00 00 00 0F
 (1742739616.523492)  can0  1DB   [8]  FF E0 C1 AA 00 00 01 8A
 (1742739616.533867)  can0  1DB   [8]  FF E0 C1 AA 00 00 02 80
 (1742739616.543362)  can0  1DB   [8]  FF E0 C1 AA 00 00 03 05
 (1742739616.554320)  can0  1DB   [8]  FF E0 C1 AA 00 00 00 0F
 (1742739616.564178)  can0  1DB   [8]  00 00 C1 AA 00 00 01 CA
 (1742739616.573867)  can0  1DB   [8]  00 00 C1 AA 00 00 02 C0
 (1742739616.584221)  can0  1DB   [8]  00 00 C1 AA 00 00 03 45
 (1742739616.593645)  can0  1DB   [8]  00 00 C1 AA 00 00 00 4F
 (1742739616.604055)  can0  1DB   [8]  00 00 C1 AA 00 00 01 CA
 (1742739616.613796)  can0  1DB   [8]  00 00 C1 AA 00 00 02 C0
 (1742739616.623489)  can0  1DB   [8]  00 00 C1 AA 00 00 03 45
 (1742739616.635110)  can0  1DB   [8]  00 00 C1 AA 00 00 00 4F
 (1742739616.643950)  can0  1DB   [8]  00 00 C1 AA 00 00 01 CA
 (1742739616.653525)  can0  1DB   [8]  00 00 C1 AA 00 00 02 C0
 (1742739616.664036)  can0  1DB   [8]  00 00 C1 AA 00 00 03 45
 (1742739616.673842)  can0  1DB   [8]  00 00 C1 AA 00 00 00 4F
 (1742739616.683975)  can0  1DB   [8]  00 00 C1 AA 00 00 01 CA
 (1742739616.693624)  can0  1DB   [8]  00 00 C1 AA 00 00 02 C0
 (1742739616.704050)  can0  1DB   [8]  00 20 C1 AA 00 00 03 14
 (1742739616.714219)  can0  1DB   [8]  00 20 C1 AA 00 00 00 1E
 (1742739616.724486)  can0  1DB   [8]  00 00 C1 AA 00 00 01 CA
 (1742739616.733554)  can0  1DB   [8]  00 00 C1 AA 00 00 02 C0
 (1742739616.743652)  can0  1DB   [8]  00 00 C1 AA 00 00 03 45
 (1742739616.754176)  can0  1DB   [8]  00 00 C1 AA 00 00 00 4F
 (1742739616.763781)  can0  1DB   [8]  FF E0 C1 AA 00 00 01 8A
 (1742739616.773484)  can0  1DB   [8]  FF E0 C1 AA 00 00 02 80
 (1742739616.783533)  can0  1DB   [8]  FF C0 C1 AA 00 00 03 54
 (1742739616.794779)  can0  1DB   [8]  FF C0 C1 AA 00 00 00 5E
 (1742739616.803773)  can0  1DB   [8]  FF A0 C1 AA 00 00 01 28
 (1742739616.813870)  can0  1DB   [8]  FF 80 C1 AA 00 00 02 73
 (1742739616.823845)  can0  1DB   [8]  FF A0 C1 AA 00 00 03 A7
 (1742739616.833904)  can0  1DB   [8]  FF A0 C1 AA 00 00 00 AD
 (1742739616.843966)  can0  1DB   [8]  FF A0 C1 AA 00 00 01 28
 (1742739616.853597)  can0  1DB   [8]  FF A0 C1 AA 00 00 02 22
 (1742739616.864002)  can0  1DB   [8]  FF A0 C1 AA 00 00 03 A7
 (1742739616.873955)  can0  1DB   [8]  FF A0 C1 AA 00 00 00 AD
 (1742739616.883684)  can0  1DB   [8]  FF A0 C1 AA 00 00 01 28
 (1742739616.893863)  can0  1DB   [8]  FF A0 C1 AA 00 00 02 22
 (1742739616.903631)  can0  1DB   [8]  FF C0 C1 AA 00 00 03 54
 (1742739616.913371)  can0  1DB   [8]  FF C0 C1 AA 00 00 00 5E
 (1742739616.923772)  can0  1DB   [8]  FF C0 C1 AA 00 00 01 DB
 (1742739616.933487)  can0  1DB   [8]  FF C0 C1 AA 00 00 02 D1
 (1742739616.943597)  can0  1DB   [8]  FF C0 C1 AA 00 00 03 54
 (1742739616.953700)  can0  1DB   [8]  FF C0 C1 AA 00 00 00 5E
 (1742739616.964374)  can0  1DB   [8]  FF C0 C1 AA 00 00 01 DB
 (1742739616.974213)  can0  1DB   [8]  FF C0 C1 AA 00 00 02 D1
 (1742739616.983624)  can0  1DB   [8]  FF C0 C1 AA 00 00 03 54
 (1742739616.994571)  can0  1DB   [8]  FF C0 C1 AA 00 00 00 5E
 (1742739617.005850)  can0  1DB   [8]  FF C0 C1 AA 00 00 01 DB
 (1742739617.014740)  can0  1DB   [8]  FF A0 C1 AA 00 00 02 22
 (1742739617.023937)  can0  1DB   [8]  FF A0 C1 AA 00 00 03 A7
 (1742739617.033781)  can0  1DB   [8]  FF A0 C1 AA 00 00 00 AD
 (1742739617.044511)  can0  1DB   [8]  FF A0 C1 AA 00 00 01 28
 (1742739617.053903)  can0  1DB   [8]  FF C0 C1 AA 00 00 02 D1
 (1742739617.063503)  can0  1DB   [8]  FF C0 C1 AA 00 00 03 54
 (1742739617.074048)  can0  1DB   [8]  FF C0 C1 AA 00 00 00 5E
 (1742739617.083593)  can0  1DB   [8]  FF C0 C1 AA 00 00 01 DB
 (1742739617.093913)  can0  1DB   [8]  FF A0 C1 AA 00 00 02 22
 (1742739617.103676)  can0  1DB   [8]  FF A0 C1 AA 00 00 03 A7
 (1742739617.113489)  can0  1DB   [8]  FF A0 C1 AA 00 00 00 AD
 (1742739617.123587)  can0  1DB   [8]  FF A0 C1 AA 00 00 01 28
 (1742739617.133702)  can0  1DB   [8]  FF C0 C1 AA 00 00 02 D1
 (1742739617.144044)  can0  1DB   [8]  FF C0 C1 AA 00 00 03 54
 (1742739617.153823)  can0  1DB   [8]  FF A0 C1 AA 00 00 00 AD
 (1742739617.164298)  can0  1DB   [8]  FF A0 C1 AA 00 00 01 28
 (1742739617.173902)  can0  1DB   [8]  FF A0 C1 AA 00 00 02 22
 (1742739617.183776)  can0  1DB   [8]  FF A0 C1 AA 00 00 03 A7
 (1742739617.193479)  can0  1DB   [8]  FF C0 C1 AA 00 00 00 5E
 (1742739617.203627)  can0  1DB   [8]  FF C0 C1 AA 00 00 01 DB
 (1742739617.214099)  can0  1DB   [8]  FF C0 C1 AA 00 00 02 D1
 (1742739617.223547)  can0  1DB   [8]  FF C0 C1 AA 00 00 03 54
 (1742739617.233450)  can0  1DB   [8]  FF C0 C1 AA 00 00 00 5E
 (1742739617.243475)  can0  1DB   [8]  FF C0 C1 AA 00 00 01 DB
 (1742739617.253431)  can0  1DB   [8]  FF A0 C1 AA 00 00 02 22
 (1742739617.263757)  can0  1DB   [8]  FF A0 C1 AA 00 00 03 A7
 (1742739617.273523)  can0  1DB   [8]  FF A0 C1 AA 00 00 00 AD
 (1742739617.283525)  can0  1DB   [8]  FF A0 C1 AA 00 00 01 28
 (1742739617.293595)  can0  1DB   [8]  FF A0 C1 AA 00 00 02 22
 (1742739617.303723)  can0  1DB   [8]  FF A0 C1 AA 00 00 03 A7
 (1742739617.313790)  can0  1DB   [8]  FF A0 C1 AA 00 00 00 AD
 (1742739617.323309)  can0  1DB   [8]  FF A0 C1 AA 00 00 01 28
 (1742739617.333418)  can0  1DB   [8]  FF A0 C1 AA 00 00 02 22
 (1742739617.343430)  can0  1DB   [8]  FF A0 C1 AA 00 00 03 A7
 (1742739617.353433)  can0  1DB   [8]  FF A0 C1 AA 00 00 00 AD
 (1742739617.363401)  can0  1DB   [8]  FF A0 C1 AA 00 00 01 28
 (1742739617.374045)  can0  1DB   [8]  FF A0 C1 AA 00 00 02 22
 (1742739617.383713)  can0  1DB   [8]  FF A0 C1 AA 00 00 03 A7
 (1742739617.394056)  can0  1DB   [8]  FF A0 C1 AA 00 00 00 AD
 (1742739617.403613)  can0  1DB   [8]  FF A0 C1 AA 00 00 01 28
 (1742739617.413559)  can0  1DB   [8]  FF A0 C1 AA 00 00 02 22
 (1742739617.424974)  can0  1DB   [8]  FF A0 C1 AA 00 00 03 A7
 (1742739617.433886)  can0  1DB   [8]  FF A0 C1 AA 00 00 00 AD
 (1742739617.443409)  can0  1DB   [8]  FF A0 C1 AA 00 00 01 28
 (1742739617.455701)  can0  1DB   [8]  FF A0 C1 AA 00 00 02 22
 (1742739617.463924)  can0  1DB   [8]  FF A0 C1 AA 00 00 03 A7
 (1742739617.474547)  can0  1DB   [8]  FF A0 C1 AA 00 00 00 AD
 (1742739617.483777)  can0  1DB   [8]  FF A0 C1 AA 00 00 01 28
 (1742739617.494199)  can0  1DB   [8]  FF A0 C1 AA 00 00 02 22
 (1742739617.503554)  can0  1DB   [8]  FF A0 C1 AA 00 00 03 A7
 (1742739617.513709)  can0  1DB   [8]  FF A0 C1 AA 00 00 00 AD
 (1742739617.523430)  can0  1DB   [8]  FF A0 C1 AA 00 00 01 28
 (1742739617.533373)  can0  1DB   [8]  FF A0 C1 AA 00 00 02 22
 (1742739617.543787)  can0  1DB   [8]  FF A0 C1 AA 00 00 03 A7
 (1742739617.553908)  can0  1DB   [8]  FF A0 C1 AA 00 00 00 AD
 (1742739617.563407)  can0  1DB   [8]  FF A0 C1 AA 00 00 01 28
 (1742739617.573523)  can0  1DB   [8]  FF A0 C1 AA 00 00 02 22
 (1742739617.583604)  can0  1DB   [8]  FF C0 C1 AA 00 00 03 54
 (1742739617.593522)  can0  1DB   [8]  FF A0 C1 AA 00 00 00 AD
 (1742739617.603539)  can0  1DB   [8]  FF A0 C1 AA 00 00 01 28
 (1742739617.613530)  can0  1DB   [8]  FF A0 C1 AA 00 00 02 22
 (1742739617.623472)  can0  1DB   [8]  FF A0 C1 AA 00 00 03 A7
 (1742739617.633901)  can0  1DB   [8]  FF A0 C1 AA 00 00 00 AD
 (1742739617.643832)  can0  1DB   [8]  FF A0 C1 AA 00 00 01 28
 (1742739617.653848)  can0  1DB   [8]  FF A0 C1 AA 00 00 02 22
 (1742739617.663398)  can0  1DB   [8]  FF C0 C1 AA 00 00 03 54
 (1742739617.673981)  can0  1DB   [8]  FF A0 C1 AA 00 00 00 AD
 (1742739617.683498)  can0  1DB   [8]  FF A0 C1 AA 00 00 01 28
 (1742739617.693484)  can0  1DB   [8]  FF C0 C1 AA 00 00 02 D1
 (1742739617.703656)  can0  1DB   [8]  FF C0 C1 AA 00 00 03 54
 (1742739617.713718)  can0  1DB   [8]  FF C0 C1 AA 00 00 00 5E
 (1742739617.723258)  can0  1DB   [8]  FF C0 C1 AA 00 00 01 DB
 (1742739617.733468)  can0  1DB   [8]  FF C0 C1 AA 00 00 02 D1
 (1742739617.743763)  can0  1DB   [8]  FF C0 C1 AA 00 00 03 54
 (1742739617.753292)  can0  1DB   [8]  FF C0 C1 AA 00 00 00 5E
 (1742739617.763470)  can0  1DB   [8]  FF C0 C1 AA 00 00 01 DB
 (1742739617.773510)  can0  1DB   [8]  FF C0 C1 AA 00 00 02 D1
 (1742739617.783289)  can0  1DB   [8]  FF C0 C1 AA 00 00 03 54
 (1742739617.793326)  can0  1DB   [8]  FF C0 C1 AA 00 00 00 5E
 (1742739617.803442)  can0  1DB   [8]  FF C0 C1 AA 00 00 01 DB
 (1742739617.814264)  can0  1DB   [8]  FF C0 C1 AA 00 00 02 D1
 (1742739617.824573)  can0  1DB   [8]  FF A0 C1 AA 00 00 03 A7
 (1742739617.835429)  can0  1DB   [8]  FF C0 C1 AA 00 00 00 5E
 (1742739617.843773)  can0  1DB   [8]  FF C0 C1 AA 00 00 01 DB
 (1742739617.853652)  can0  1DB   [8]  FF C0 C1 AA 00 00 02 D1
 (1742739617.863498)  can0  1DB   [8]  FF C0 C1 AA 00 00 03 54
 (1742739617.873460)  can0  1DB   [8]  FF C0 C1 AA 00 00 00 5E
 (1742739617.883470)  can0  1DB   [8]  FF C0 C1 AA 00 00 01 DB
 (1742739617.893325)  can0  1DB   [8]  FF C0 C1 AA 00 00 02 D1
 (1742739617.903816)  can0  1DB   [8]  FF C0 C1 AA 00 00 03 54
 (1742739617.913334)  can0  1DB   [8]  FF C0 C1 AA 00 00 00 5E
 (1742739617.923880)  can0  1DB   [8]  FF C0 C1 AA 00 00 01 DB
 (1742739617.933404)  can0  1DB   [8]  FF C0 C1 AA 00 00 02 D1
 (1742739617.943814)  can0  1DB   [8]  FF C0 C1 AA 00 00 03 54
 (1742739617.953614)  can0  1DB   [8]  FF C0 C1 AA 00 00 00 5E
 (1742739617.963838)  can0  1DB   [8]  FF C0 C1 AA 00 00 01 DB
 (1742739617.973691)  can0  1DB   [8]  FF C0 C1 AA 00 00 02 D1
 (1742739617.983366)  can0  1DB   [8]  FF C0 C1 AA 00 00 03 54
 (1742739617.993291)  can0  1DB   [8]  FF C0 C1 AA 00 00 00 5E
 (1742739618.003771)  can0  1DB   [8]  FF C0 C1 AA 00 00 01 DB
 (1742739618.013469)  can0  1DB   [8]  FF C0 C1 AA 00 00 02 D1
 (1742739618.023319)  can0  1DB   [8]  FF C0 C1 AA 00 00 03 54
 (1742739618.033310)  can0  1DB   [8]  FF C0 C1 AA 00 00 00 5E
 (1742739618.044092)  can0  1DB   [8]  FF C0 C1 AA 00 00 01 DB
 (1742739618.053438)  can0  1DB   [8]  FF C0 C1 AA 00 00 02 D1
 (1742739618.065035)  can0  1DB   [8]  FF C0 C1 AA 00 00 03 54
 (1742739618.073501)  can0  1DB   [8]  FF C0 C1 AA 00 00 00 5E
 (1742739618.083537)  can0  1DB   [8]  FF C0 C1 AA 00 00 01 DB
 (1742739618.093305)  can0  1DB   [8]  FF C0 C1 AA 00 00 02 D1
 (1742739618.103671)  can0  1DB   [8]  FF C0 C1 AA 00 00 03 54
 (1742739618.113240)  can0  1DB   [8]  FF C0 C1 AA 00 00 00 5E
 (1742739618.124044)  can0  1DB   [8]  FF C0 C1 AA 00 00 01 DB
 (1742739618.133349)  can0  1DB   [8]  FF C0 C1 AA 00 00 02 D1
 (1742739618.143822)  can0  1DB   [8]  FF C0 C1 AA 00 00 03 54
 (1742739618.153263)  can0  1DB   [8]  FF C0 C1 AA 00 00 00 5E
 (1742739618.163703)  can0  1DB   [8]  FF C0 C1 AA 00 00 01 DB
 (1742739618.173307)  can0  1DB   [8]  FF C0 C1 AA 00 00 02 D1
 (1742739618.183225)  can0  1DB   [8]  FF C0 C1 AA 00 00 03 54
 (1742739618.193247)  can0  1DB   [8]  FF C0 C1 AA 00 00 00 5E
 (1742739618.203624)  can0  1DB   [8]  FF C0 C1 AA 00 00 01 DB
 (1742739618.213562)  can0  1DB   [8]  FF C0 C1 AA 00 00 02 D1
 (1742739618.223506)  can0  1DB   [8]  FF C0 C1 AA 00 00 03 54
 (1742739618.233714)  can0  1DB   [8]  FF C0 C1 AA 00 00 00 5E
 (1742739618.243494)  can0  1DB   [8]  FF C0 C1 AA 00 00 01 DB
 (1742739618.254711)  can0  1DB   [8]  FF C0 C1 AA 00 00 02 D1
 (1742739618.264168)  can0  1DB   [8]  FF A0 C1 AA 00 00 03 A7
 (1742739618.274456)  can0  1DB   [8]  FF A0 C1 AA 00 00 00 AD
 (1742739618.284613)  can0  1DB   [8]  FF A0 C1 AA 00 00 01 28
 (1742739618.293581)  can0  1DB   [8]  FF A0 C1 AA 00 00 02 22
 (1742739618.303458)  can0  1DB   [8]  FF A0 C1 AA 00 00 03 A7
 (1742739618.313307)  can0  1DB   [8]  FF A0 C1 AA 00 00 00 AD
 (1742739618.323301)  can0  1DB   [8]  FF A0 C1 AA 00 00 01 28
 (1742739618.333314)  can0  1DB   [8]  FF A0 C1 AA 00 00 02 22
 (1742739618.343415)  can0  1DB   [8]  FF A0 C1 AA 00 00 03 A7
 (1742739618.353260)  can0  1DB   [8]  FF C0 C1 AA 00 00 00 5E
 (1742739618.363306)  can0  1DB   [8]  FF C0 C1 AA 00 00 01 DB
 (1742739618.373424)  can0  1DB   [8]  FF C0 C1 AA 00 00 02 D1
 (1742739618.383299)  can0  1DB   [8]  FF C0 C1 AA 00 00 03 54
 (1742739618.393263)  can0  1DB   [8]  FF C0 C1 AA 00 00 00 5E
 (1742739618.403384)  can0  1DB   [8]  FF C0 C1 AA 00 00 01 DB
 (1742739618.413296)  can0  1DB   [8]  FF C0 C1 AA 00 00 02 D1
 (1742739618.423262)  can0  1DB   [8]  FF C0 C1 AA 00 00 03 54
 (1742739618.433753)  can0  1DB   [8]  FF C0 C1 AA 00 00 00 5E
 (1742739618.443231)  can0  1DB   [8]  FF C0 C1 AA 00 00 01 DB
 (1742739618.454677)  can0  1DB   [8]  FF C0 C1 AA 00 00 02 D1
 (1742739618.463556)  can0  1DB   [8]  FF C0 C1 AA 00 00 03 54
 (1742739618.473766)  can0  1DB   [8]  FF C0 C1 AA 00 00 00 5E
 (1742739618.484205)  can0  1DB   [8]  FF C0 C1 AA 00 00 01 DB
 (1742739618.493735)  can0  1DB   [8]  FF C0 C1 AA 00 00 02 D1
 (1742739618.504077)  can0  1DB   [8]  FF C0 C1 AA 00 00 03 54
 (1742739618.513548)  can0  1DB   [8]  FF C0 C1 AA 00 00 00 5E
 (1742739618.523203)  can0  1DB   [8]  FF C0 C1 AA 00 00 01 DB
 (1742739618.533190)  can0  1DB   [8]  FF C0 C1 AA 00 00 02 D1
 (1742739618.543318)  can0  1DB   [8]  FF C0 C1 AA 00 00 03 54
 (1742739618.553473)  can0  1DB   [8]  FF C0 C1 AA 00 00 00 5E
 (1742739618.563354)  can0  1DB   [8]  FF C0 C1 AA 00 00 01 DB
 (1742739618.573251)  can0  1DB   [8]  FF C0 C1 AA 00 00 02 D1
 (1742739618.583549)  can0  1DB   [8]  FF C0 C1 AA 00 00 03 54
 (1742739618.593335)  can0  1DB   [8]  FF C0 C1 AA 00 00 00 5E
 (1742739618.603556)  can0  1DB   [8]  FF C0 C1 AA 00 00 01 DB
 (1742739618.613374)  can0  1DB   [8]  FF C0 C1 AA 00 00 02 D1
 (1742739618.623613)  can0  1DB   [8]  FF C0 C1 AA 00 00 03 54
 (1742739618.633639)  can0  1DB   [8]  FF C0 C1 AA 00 00 00 5E
 (1742739618.643820)  can0  1DB   [8]  FF C0 C1 AA 00 00 01 DB
 (1742739618.654086)  can0  1DB   [8]  FF C0 C1 AA 00 00 02 D1
 (1742739618.664115)  can0  1DB   [8]  FF C0 C1 AA 00 00 03 54
 (1742739618.674636)  can0  1DB   [8]  FF C0 C1 AA 00 00 00 5E
 (1742739618.684182)  can0  1DB   [8]  FF C0 C1 AA 00 00 01 DB
 (1742739618.693849)  can0  1DB   [8]  FF C0 C1 AA 00 00 02 D1
 (1742739618.703351)  can0  1DB   [8]  FF C0 C1 AA 00 00 03 54
 (1742739618.714805)  can0  1DB   [8]  FF C0 C1 AA 00 00 00 5E
 (1742739618.723546)  can0  1DB   [8]  FF C0 C1 AA 00 00 01 DB
 (1742739618.733636)  can0  1DB   [8]  FF C0 C1 AA 00 00 02 D1
 (1742739618.743204)  can0  1DB   [8]  FF C0 C1 AA 00 00 03 54
 (1742739618.753245)  can0  1DB   [8]  FF C0 C1 AA 00 00 00 5E
 (1742739618.763720)  can0  1DB   [8]  FF C0 C1 AA 00 00 01 DB
 (1742739618.773342)  can0  1DB   [8]  FF C0 C1 AA 00 00 02 D1
 (1742739618.783260)  can0  1DB   [8]  FF C0 C1 AA 00 00 03 54
 (1742739618.793256)  can0  1DB   [8]  FF C0 C1 AA 00 00 00 5E
 (1742739618.803548)  can0  1DB   [8]  FF C0 C1 AA 00 00 01 DB
 (1742739618.813320)  can0  1DB   [8]  FF A0 C1 AA 00 00 02 22
 (1742739618.823231)  can0  1DB   [8]  FF A0 C1 AA 00 00 03 A7
 (1742739618.833618)  can0  1DB   [8]  FF A0 C1 AA 00 00 00 AD
 (1742739618.843316)  can0  1DB   [8]  FF C0 C1 AA 00 00 01 DB
 (1742739618.853550)  can0  1DB   [8]  FF C0 C1 AA 00 00 02 D1
 (1742739618.863350)  can0  1DB   [8]  FF C0 C1 AA 00 00 03 54
 (1742739618.873438)  can0  1DB   [8]  FF C0 C1 AA 00 00 00 5E
 (1742739618.883725)  can0  1DB   [8]  FF C0 C1 AA 00 00 01 DB
 (1742739618.893558)  can0  1DB   [8]  FF C0 C1 AA 00 00 02 D1
 (1742739618.903339)  can0  1DB   [8]  FF C0 C1 AA 00 00 03 54
 (1742739618.913208)  can0  1DB   [8]  FF C0 C1 AA 00 00 00 5E
 (1742739618.923585)  can0  1DB   [8]  FF C0 C1 AA 00 00 01 DB
 (1742739618.933130)  can0  1DB   [8]  FF C0 C1 AA 00 00 02 D1
 (1742739618.943146)  can0  1DB   [8]  FF C0 C1 AA 00 00 03 54
 (1742739618.953192)  can0  1DB   [8]  FF C0 C1 AA 00 00 00 5E
 (1742739618.963243)  can0  1DB   [8]  FF C0 C1 AA 00 00 01 DB
 (1742739618.973129)  can0  1DB   [8]  FF C0 C1 AA 00 00 02 D1
 (1742739618.983139)  can0  1DB   [8]  FF C0 C1 AA 00 00 03 54
 (1742739618.993144)  can0  1DB   [8]  FF C0 C1 AA 00 00 00 5E
 (1742739619.003510)  can0  1DB   [8]  FF C0 C1 AA 00 00 01 DB
 (1742739619.013830)  can0  1DB   [8]  FF C0 C1 AA 00 00 02 D1
 (1742739619.023168)  can0  1DB   [8]  FF C0 C1 AA 00 00 03 54
 (1742739619.033507)  can0  1DB   [8]  FF C0 C1 AA 00 00 00 5E
 (1742739619.044413)  can0  1DB   [8]  FF C0 C1 AA 00 00 01 DB
 (1742739619.053858)  can0  1DB   [8]  FF C0 C1 AA 00 00 02 D1
 (1742739619.064618)  can0  1DB   [8]  FF C0 C1 AA 00 00 03 54
 (1742739619.074053)  can0  1DB   [8]  FF C0 C1 AA 00 00 00 5E
 (1742739619.084812)  can0  1DB   [8]  FF C0 C1 AA 00 00 01 DB
 (1742739619.094281)  can0  1DB   [8]  FF C0 C1 AA 00 00 02 D1
 (1742739619.103671)  can0  1DB   [8]  FF C0 C1 AA 00 00 03 54
 (1742739619.113349)  can0  1DB   [8]  FF A0 C1 AA 00 00 00 AD
 (1742739619.123933)  can0  1DB   [8]  FF A0 C1 AA 00 00 01 28
 (1742739619.133295)  can0  1DB   [8]  FF C0 C1 AA 00 00 02 D1
 (1742739619.143208)  can0  1DB   [8]  FF C0 C1 AA 00 00 03 54
 (1742739619.153540)  can0  1DB   [8]  FF C0 C1 AA 00 00 00 5E
 (1742739619.163955)  can0  1DB   [8]  FF C0 C1 AA 00 00 01 DB
 (1742739619.173723)  can0  1DB   [8]  FF C0 C1 AA 00 00 02 D1
 (1742739619.183281)  can0  1DB   [8]  FF C0 C1 AA 00 00 03 54
 (1742739619.193274)  can0  1DB   [8]  FF C0 C1 AA 00 00 00 5E
 (1742739619.203497)  can0  1DB   [8]  FF C0 C1 AA 00 00 01 DB
 (1742739619.213651)  can0  1DB   [8]  FF C0 C1 AA 00 00 02 D1
 (1742739619.223652)  can0  1DB   [8]  FF C0 C1 AA 00 00 03 54
 (1742739619.233483)  can0  1DB   [8]  FF C0 C1 AA 00 00 00 5E
 (1742739619.243196)  can0  1DB   [8]  FF C0 C1 AA 00 00 01 DB
 (1742739619.253237)  can0  1DB   [8]  FF C0 C1 AA 00 00 02 D1
 (1742739619.263693)  can0  1DB   [8]  FF C0 C1 AA 00 00 03 54
 (1742739619.273388)  can0  1DB   [8]  FF C0 C1 AA 00 00 00 5E
 (1742739619.283929)  can0  1DB   [8]  FF C0 C1 AA 00 00 01 DB
 (1742739619.293186)  can0  1DB   [8]  FF C0 C1 AA 00 00 02 D1
 (1742739619.303533)  can0  1DB   [8]  FF C0 C1 AA 00 00 03 54
 (1742739619.313439)  can0  1DB   [8]  FF C0 C1 AA 00 00 00 5E
 (1742739619.323602)  can0  1DB   [8]  FF C0 C1 AA 00 00 01 DB
 (1742739619.333211)  can0  1DB   [8]  FF C0 C1 AA 00 00 02 D1
 (1742739619.343156)  can0  1DB   [8]  FF C0 C1 AA 00 00 03 54
 (1742739619.353242)  can0  1DB   [8]  FF C0 C1 AA 00 00 00 5E
 (1742739619.363271)  can0  1DB   [8]  FF C0 C1 AA 00 00 01 DB
 (1742739619.373173)  can0  1DB   [8]  FF C0 C1 AA 00 00 02 D1
 (1742739619.383178)  can0  1DB   [8]  FF C0 C1 AA 00 00 03 54
 (1742739619.393175)  can0  1DB   [8]  FF C0 C1 AA 00 00 00 5E
 (1742739619.403406)  can0  1DB   [8]  FF C0 C1 AA 00 00 01 DB
 (1742739619.413347)  can0  1DB   [8]  FF C0 C1 AA 00 00 02 D1
 (1742739619.423739)  can0  1DB   [8]  FF C0 C1 AA 00 00 03 54
 (1742739619.433281)  can0  1DB   [8]  FF C0 C1 AA 00 00 00 5E
 (1742739619.443274)  can0  1DB   [8]  FF C0 C1 AA 00 00 01 DB
 (1742739619.454510)  can0  1DB   [8]  FF C0 C1 AA 00 00 02 D1
 (1742739619.464094)  can0  1DB   [8]  FF C0 C1 AA 00 00 03 54
 (1742739619.473081)  can0  1DB   [8]  FF C0 C1 AA 00 00 00 5E
 (1742739619.483225)  can0  1DB   [8]  FF C0 C1 AA 00 00 01 DB
 (1742739619.493280)  can0  1DB   [8]  FF C0 C1 AA 00 00 02 D1
 (1742739619.503484)  can0  1DB   [8]  FF C0 C1 AA 00 00 03 54
 (1742739619.513909)  can0  1DB   [8]  FF C0 C1 AA 00 00 00 5E
 (1742739619.524328)  can0  1DB   [8]  FF C0 C1 AA 00 00 01 DB
 (1742739619.533487)  can0  1DB   [8]  FF C0 C1 AA 00 00 02 D1
 (1742739619.543083)  can0  1DB   [8]  FF C0 C1 AA 00 00 03 54
 (1742739619.553139)  can0  1DB   [8]  FF C0 C1 AA 00 00 00 5E
 (1742739619.563286)  can0  1DB   [8]  FF C0 C1 AA 00 00 01 DB
 (1742739619.573432)  can0  1DB   [8]  FF C0 C1 AA 00 00 02 D1
 (1742739619.583102)  can0  1DB   [8]  FF C0 C1 AA 00 00 03 54
 (1742739619.593098)  can0  1DB   [8]  FF C0 C1 AA 00 00 00 5E
 (1742739619.603424)  can0  1DB   [8]  FF C0 C1 AA 00 00 01 DB
 (1742739619.613500)  can0  1DB   [8]  FF C0 C1 AA 00 00 02 D1
 (1742739619.623070)  can0  1DB   [8]  FF C0 C1 AA 00 00 03 54
 (1742739619.633389)  can0  1DB   [8]  FF C0 C1 AA 00 00 00 5E
 (1742739619.643603)  can0  1DB   [8]  FF C0 C1 AA 00 00 01 DB
 (1742739619.653536)  can0  1DB   [8]  FF C0 C1 AA 00 00 02 D1
 (1742739619.663567)  can0  1DB   [8]  FF C0 C1 AA 00 00 03 54
