(1709566781.052748) can0 5C0 [8] 80 64 64 FF C8 B8 00 00
(1709566781.555466) can0 5C0 [8] C0 60 60 FF C8 B8 00 00
(1709566782.054556) can0 5C0 [8] 40 68 68 FF C8 28 00 00
(1709566782.545388) can0 5C0 [8] 80 64 64 FF C8 B8 00 00
(1709566783.046512) can0 5C0 [8] C0 60 60 FF C8 B8 00 00
(1709566783.546071) can0 5C0 [8] 40 68 68 FF C8 28 00 00
(1709566784.042725) can0 5C0 [8] 80 64 64 FF C8 B8 00 00
(1709566784.541392) can0 5C0 [8] C0 60 60 FF C8 B8 00 00
(1709566785.040687) can0 5C0 [8] 40 68 68 FF C8 28 00 00
(1709566785.539587) can0 5C0 [8] 80 64 64 FF C8 B8 00 00
(1709566786.038223) can0 5C0 [8] C0 60 60 FF C8 B8 00 00
(1709566786.535151) can0 5C0 [8] 40 68 68 FF C8 28 00 00
(1709566787.045117) can0 5C0 [8] 80 64 64 FF C8 B8 00 00
(1709566787.585558) can0 5C0 [8] C0 60 60 FF C8 B8 00 00
(1709566788.643184) can0 5C0 [8] 80 64 64 FF C8 B8 00 00
(1709566789.087889) can0 5C0 [8] C0 60 60 FF C8 B8 00 00
(1709566789.615085) can0 5C0 [8] 40 68 68 FF C8 28 00 00
(1709566790.071292) can0 5C0 [8] 80 64 64 FF C8 B8 00 00
(1709566790.527483) can0 5C0 [8] C0 60 60 FF C8 B8 00 00
(1709566791.025184) can0 5C0 [8] 40 68 68 FF C8 28 00 00
(1709566791.525735) can0 5C0 [8] 80 64 64 FF C8 B8 00 00
(1709566792.021651) can0 5C0 [8] C0 60 60 FF C8 B8 00 00
(1709566792.520726) can0 5C0 [8] 40 68 68 FF C8 28 00 00
(1709566793.019329) can0 5C0 [8] 80 64 64 FF C8 B8 00 00
(1709566793.518493) can0 5C0 [8] C0 60 60 FF C8 B8 00 00
(1709566794.017479) can0 5C0 [8] 40 68 68 FF C8 28 00 00
(1709566794.515319) can0 5C0 [8] 80 64 64 FF C8 B8 00 00
(1709566795.014455) can0 5C0 [8] C0 60 60 FF C8 B8 00 00
(1709566795.513875) can0 5C0 [8] 40 68 68 FF C8 28 00 00
(1709566796.012979) can0 5C0 [8] 80 64 64 FF C8 B8 00 00
(1709566796.518606) can0 5C0 [8] C0 60 60 FF C8 B8 00 00
(1709566797.009356) can0 5C0 [8] 40 68 68 FF C8 28 00 00
(1709566797.521102) can0 5C0 [8] 80 64 64 FF C8 B8 00 00
(1709566798.007185) can0 5C0 [8] C0 60 60 FF C8 B8 00 00
(1709566798.507473) can0 5C0 [8] 40 68 68 FF C8 28 00 00
(1709566799.006310) can0 5C0 [8] 80 64 64 FF C8 B8 00 00
(1709566799.504297) can0 5C0 [8] C0 60 60 FF C8 B8 00 00
(1709566800.002020) can0 5C0 [8] 40 68 68 FF C8 28 00 00
(1709566800.501608) can0 5C0 [8] 80 64 64 FF C8 B8 00 00
(1709566800.999221) can0 5C0 [8] C0 60 60 FF C8 B8 00 00
(1709566801.498041) can0 5C0 [8] 40 68 68 FF C8 28 00 00
(1709566801.997714) can0 5C0 [8] 80 64 64 FF C8 B8 00 00
(1709566802.495141) can0 5C0 [8] C0 60 60 FF C8 B8 00 00
(1709566802.994754) can0 5C0 [8] 40 68 68 FF C8 28 00 00
(1709566803.494314) can0 5C0 [8] 80 64 64 FF C8 B8 00 00
(1709566803.993589) can0 5C0 [8] C0 60 60 FF C8 B8 00 00
(1709566804.505639) can0 5C0 [8] 40 68 68 FF C8 28 00 00
(1709566804.986573) can0 5C0 [8] 80 64 64 FF C8 B8 00 00
(1709566805.487527) can0 5C0 [8] C0 60 60 FF C8 B8 00 00
(1709566805.986154) can0 5C0 [8] 40 68 68 FF C8 28 00 00
(1709566806.486027) can0 5C0 [8] 80 64 64 FF C8 B8 00 00
(1709566806.984950) can0 5C0 [8] C0 60 60 FF C8 B8 00 00
(1709566807.486286) can0 5C0 [8] 40 68 68 FF C8 28 00 00
(1709566807.996452) can0 5C0 [8] 80 64 64 FF C8 B8 00 00
(1709566808.513780) can0 5C0 [8] C0 60 60 FF C8 B8 00 00
(1709566808.993053) can0 5C0 [8] 40 68 68 FF C8 28 00 00
(1709566809.475573) can0 5C0 [8] 80 64 64 FF C8 B8 00 00
(1709566809.972710) can0 5C0 [8] C0 60 60 FF C8 B8 00 00
(1709566810.496983) can0 5C0 [8] 40 68 68 FF C8 28 00 00
(1709566810.970557) can0 5C0 [8] 80 64 64 FF C8 B8 00 00
(1709566811.472050) can0 5C0 [8] C0 60 60 FF C8 B8 00 00
(1709566811.969795) can0 5C0 [8] 40 68 68 FF C8 28 00 00
(1709566812.466658) can0 5C0 [8] 80 64 64 FF C8 B8 00 00
(1709566812.963761) can0 5C0 [8] C0 60 60 FF C8 B8 00 00
(1709566813.464534) can0 5C0 [8] 40 68 68 FF C8 28 00 00
(1709566813.963006) can0 5C0 [8] 80 64 64 FF C8 B8 00 00
(1709566814.462147) can0 5C0 [8] C0 60 60 FF C8 B8 00 00
(1709566814.971876) can0 5C0 [8] 40 68 68 FF C8 28 00 00
(1709566815.457568) can0 5C0 [8] 80 64 64 FF C8 B8 00 00
(1709566815.957971) can0 5C0 [8] C0 60 60 FF C8 B8 00 00
(1709566816.476907) can0 5C0 [8] 40 68 68 FF C8 28 00 00
(1709566817.000072) can0 5C0 [8] 80 64 64 FF C8 B8 00 00
(1709566817.457447) can0 5C0 [8] C0 60 60 FF C8 B8 00 00
(1709566817.963863) can0 5C0 [8] 40 68 68 FF C8 28 00 00
(1709566818.526681) can0 5C0 [8] 80 64 64 FF C8 B8 00 00
(1709566818.981145) can0 5C0 [8] C0 60 60 FF C8 B8 00 00
(1709566819.449586) can0 5C0 [8] 40 68 68 FF C8 28 00 00
(1709566819.951692) can0 5C0 [8] 80 64 64 FF C8 B8 00 00
(1709566820.451132) can0 5C0 [8] C0 60 60 FF C8 B8 00 00
(1709566820.966420) can0 5C0 [8] 40 68 68 FF C8 28 00 00
(1709566821.504946) can0 5C0 [8] 80 64 64 FF C8 B8 00 00
(1709566821.944347) can0 5C0 [8] C0 60 60 FF C8 B8 00 00
(1709566822.441985) can0 5C0 [8] 40 68 68 FF C8 28 00 00
(1709566822.937752) can0 5C0 [8] 80 64 64 FF C8 B8 00 00
(1709566823.435986) can0 5C0 [8] C0 60 60 FF C8 B8 00 00
(1709566823.937190) can0 5C0 [8] 40 68 68 FF C8 28 00 00
(1709566824.441964) can0 5C0 [8] 80 64 64 FF C8 B8 00 00
(1709566824.937176) can0 5C0 [8] C0 60 60 FF C8 B8 00 00
(1709566825.432176) can0 5C0 [8] 40 68 68 FF C8 28 00 00
(1709566825.929535) can0 5C0 [8] 80 64 64 FF C8 B8 00 00
(1709566826.429086) can0 5C0 [8] C0 60 60 FF C8 B8 00 00
(1709566826.928774) can0 5C0 [8] 40 68 68 FF C8 28 00 00
(1709566827.428585) can0 5C0 [8] 80 64 64 FF C8 B8 00 00
(1709566827.929364) can0 5C0 [8] C0 60 60 FF C8 B8 00 00
(1709566828.425307) can0 5C0 [8] 40 68 68 FF C8 28 00 00
(1709566828.925944) can0 5C0 [8] 80 64 64 FF C8 B8 00 00
(1709566829.423871) can0 5C0 [8] C0 60 60 FF C8 B8 00 00
(1709566829.922853) can0 5C0 [8] 40 68 68 FF C8 28 00 00
(1709566830.419868) can0 5C0 [8] 80 64 64 FF C8 B8 00 00
(1709566830.916891) can0 5C0 [8] C0 60 60 FF C8 B8 00 00
(1709566831.416116) can0 5C0 [8] 40 68 68 FF C8 28 00 00
(1709566831.917077) can0 5C0 [8] 80 64 64 FF C8 B8 00 00
(1709566832.416217) can0 5C0 [8] C0 60 60 FF C8 B8 00 00
(1709566832.914698) can0 5C0 [8] 40 68 68 FF C8 28 00 00
(1709566833.412684) can0 5C0 [8] 80 64 64 FF C8 B8 00 00
(1709566833.913192) can0 5C0 [8] C0 60 60 FF C8 B8 00 00
(1709566834.408428) can0 5C0 [8] 40 68 68 FF C8 28 00 00
(1709566834.909469) can0 5C0 [8] 80 64 64 FF C8 B8 00 00
(1709566835.408680) can0 5C0 [8] C0 60 60 FF C8 B8 00 00
(1709566835.903245) can0 5C0 [8] 40 68 68 FF C8 28 00 00
(1709566836.405155) can0 5C0 [8] 80 64 64 FF C8 B8 00 00
(1709566836.903095) can0 5C0 [8] C0 60 60 FF C8 B8 00 00
(1709566837.403213) can0 5C0 [8] 40 68 68 FF C8 28 00 00
(1709566837.903313) can0 5C0 [8] 80 64 64 FF C8 B8 00 00
(1709566838.396744) can0 5C0 [8] C0 60 60 FF C8 B8 00 00
(1709566838.898365) can0 5C0 [8] 40 68 68 FF C8 28 00 00
(1709566839.395705) can0 5C0 [8] 80 64 64 FF C8 B8 00 00
(1709566839.895488) can0 5C0 [8] C0 60 60 FF C8 B8 00 00
(1709566840.394866) can0 5C0 [8] 40 68 68 FF C8 28 00 00
(1709566840.895158) can0 5C0 [8] 80 64 64 FF C8 B8 00 00
(1709566841.390562) can0 5C0 [8] C0 60 60 FF C8 B8 00 00
(1709566841.888066) can0 5C0 [8] 40 68 68 FF C8 28 00 00
(1709566842.388518) can0 5C0 [8] 80 64 64 FF C8 B8 00 00
(1709566842.888033) can0 5C0 [8] C0 60 60 FF C8 B8 00 00
(1709566843.386796) can0 5C0 [8] 40 68 68 FF C8 28 00 00
(1709566843.883453) can0 5C0 [8] 80 64 64 FF C8 B8 00 00
(1709566844.382352) can0 5C0 [8] C0 60 60 FF C8 B8 00 00
(1709566844.883183) can0 5C0 [8] 40 68 68 FF C8 28 00 00
(1709566845.381187) can0 5C0 [8] 80 64 64 FF C8 B8 00 00
(1709566845.882741) can0 5C0 [8] C0 60 60 FF C8 B8 00 00
(1709566846.376025) can0 5C0 [8] 40 68 68 FF C8 28 00 00
(1709566846.874996) can0 5C0 [8] 80 64 64 FF C8 B8 00 00
(1709566847.374103) can0 5C0 [8] C0 60 60 FF C8 B8 00 00
(1709566847.878581) can0 5C0 [8] 40 68 68 FF C8 28 00 00
(1709566848.431873) can0 5C0 [8] 80 64 64 FF C8 B8 00 00
(1709566848.926459) can0 5C0 [8] C0 60 60 FF C8 B8 00 00
(1709566849.365518) can0 5C0 [8] 40 68 68 FF C8 28 00 00
(1709566849.865262) can0 5C0 [8] 80 64 64 FF C8 B8 00 00
(1709566850.366481) can0 5C0 [8] C0 60 60 FF C8 B8 00 00
(1709566850.873974) can0 5C0 [8] 40 68 68 FF C8 28 00 00
(1709566851.359861) can0 5C0 [8] 80 64 64 FF C8 B8 00 00
(1709566851.857972) can0 5C0 [8] C0 60 60 FF C8 B8 00 00
(1709566852.357122) can0 5C0 [8] 40 68 68 FF C8 28 00 00
(1709566852.857630) can0 5C0 [8] 80 64 64 FF C8 B8 00 00
(1709566853.358652) can0 5C0 [8] C0 60 60 FF C8 B8 00 00
(1709566853.855432) can0 5C0 [8] 40 68 68 FF C8 28 00 00
(1709566854.351761) can0 5C0 [8] 80 64 64 FF C8 B8 00 00
(1709566854.849990) can0 5C0 [8] C0 60 60 FF C8 B8 00 00
(1709566855.349863) can0 5C0 [8] 40 68 68 FF C8 28 00 00
(1709566855.849724) can0 5C0 [8] 80 64 64 FF C8 B8 00 00
(1709566856.349917) can0 5C0 [8] C0 60 60 FF C8 B8 00 00
(1709566856.845982) can0 5C0 [8] 40 68 68 FF C8 28 00 00
(1709566857.345278) can0 5C0 [8] 80 64 64 FF C8 B8 00 00
(1709566857.843604) can0 5C0 [8] C0 60 60 FF C8 B8 00 00
(1709566858.343769) can0 5C0 [8] 40 68 68 FF C8 28 00 00
(1709566858.842523) can0 5C0 [8] 80 64 64 FF C8 B8 00 00
(1709566859.338192) can0 5C0 [8] C0 60 60 FF C8 B8 00 00
(1709566859.836814) can0 5C0 [8] 40 68 68 FF C8 28 00 00
(1709566860.341911) can0 5C0 [8] 80 64 64 FF C8 B8 00 00
(1709566860.836237) can0 5C0 [8] C0 60 60 FF C8 B8 00 00
(1709566861.336504) can0 5C0 [8] 40 68 68 FF C8 28 00 00
(1709566861.832791) can0 5C0 [8] 80 64 64 FF C8 B8 00 00
(1709566862.330127) can0 5C0 [8] C0 60 60 FF C8 B8 00 00
(1709566862.887870) can0 5C0 [8] 40 68 68 FF C8 28 00 00
(1709566863.332882) can0 5C0 [8] 80 64 64 FF C8 B8 00 00
(1709566863.828859) can0 5C0 [8] C0 60 60 FF C8 B8 00 00
(1709566864.324518) can0 5C0 [8] 40 68 68 FF C8 28 00 00
(1709566864.823857) can0 5C0 [8] 80 64 64 FF C8 B8 00 00
(1709566865.321515) can0 5C0 [8] C0 60 60 FF C8 B8 00 00
(1709566865.823320) can0 5C0 [8] 40 68 68 FF C8 28 00 00
(1709566866.322497) can0 5C0 [8] 80 64 64 FF C8 B8 00 00
(1709566866.823635) can0 5C0 [8] C0 60 60 FF C8 B8 00 00
(1709566867.316319) can0 5C0 [8] 40 68 68 FF C8 28 00 00
(1709566867.816043) can0 5C0 [8] 80 64 64 FF C8 B8 00 00
(1709566868.315473) can0 5C0 [8] C0 60 60 FF C8 B8 00 00
(1709566868.815029) can0 5C0 [8] 40 68 68 FF C8 28 00 00
(1709566869.315098) can0 5C0 [8] 80 64 64 FF C8 B8 00 00
(1709566869.809737) can0 5C0 [8] C0 60 60 FF C8 B8 00 00
(1709566870.313995) can0 5C0 [8] 40 68 68 FF C8 28 00 00
(1709566870.808979) can0 5C0 [8] 80 64 64 FF C8 B8 00 00
(1709566871.308943) can0 5C0 [8] C0 60 60 FF C8 B8 00 00
(1709566871.808346) can0 5C0 [8] 40 68 68 FF C8 28 00 00
(1709566872.303628) can0 5C0 [8] 80 64 64 FF C8 B8 00 00
(1709566872.802217) can0 5C0 [8] C0 60 60 FF C8 B8 00 00
(1709566873.301460) can0 5C0 [8] 40 68 68 FF C8 28 00 00
(1709566873.800737) can0 5C0 [8] 80 64 64 FF C8 B8 00 00
(1709566874.302000) can0 5C0 [8] C0 60 60 FF C8 B8 00 00
(1709566874.798565) can0 5C0 [8] 40 68 68 FF C8 28 00 00
(1709566875.295906) can0 5C0 [8] 80 64 64 FF C8 B8 00 00
(1709566875.801214) can0 5C0 [8] C0 60 60 FF C8 B8 00 00
(1709566876.293356) can0 5C0 [8] 40 68 68 FF C8 28 00 00
(1709566876.793551) can0 5C0 [8] 80 64 64 FF C8 B8 00 00
(1709566877.293713) can0 5C0 [8] C0 60 60 FF C8 B8 00 00
(1709566877.793251) can0 5C0 [8] 40 68 68 FF C8 28 00 00
(1709566878.288291) can0 5C0 [8] 80 64 64 FF C8 B8 00 00
(1709566878.790974) can0 5C0 [8] C0 60 60 FF C8 B8 00 00
(1709566879.289453) can0 5C0 [8] 40 68 68 FF C8 28 00 00
(1709566879.797825) can0 5C0 [8] 80 64 64 FF C8 B8 00 00
(1709566880.282551) can0 5C0 [8] C0 60 60 FF C8 B8 00 00
(1709566880.779828) can0 5C0 [8] 40 68 68 FF C8 28 00 00
(1709566881.278959) can0 5C0 [8] 80 64 64 FF C8 B8 00 00
(1709566881.781549) can0 5C0 [8] C0 60 60 FF C8 B8 00 00
(1709566882.280179) can0 5C0 [8] 40 68 68 FF C8 28 00 00
(1709566882.775013) can0 5C0 [8] 80 64 64 FF C8 B8 00 00
(1709566883.273236) can0 5C0 [8] C0 60 60 FF C8 B8 00 00
(1709566883.773981) can0 5C0 [8] 40 68 68 FF C8 28 00 00
(1709566884.273144) can0 5C0 [8] 80 64 64 FF C8 B8 00 00
(1709566884.772555) can0 5C0 [8] C0 60 60 FF C8 B8 00 00
(1709566885.268209) can0 5C0 [8] 40 68 68 FF C8 28 00 00
(1709566885.765375) can0 5C0 [8] 80 64 64 FF C8 B8 00 00
(1709566886.265754) can0 5C0 [8] C0 60 60 FF C8 B8 00 00
(1709566886.765673) can0 5C0 [8] 40 68 68 FF C8 28 00 00
(1709566887.266106) can0 5C0 [8] 80 64 64 FF C8 B8 00 00
(1709566887.761066) can0 5C0 [8] C0 60 60 FF C8 B8 00 00
(1709566888.261720) can0 5C0 [8] 40 68 68 FF C8 28 00 00
(1709566888.757721) can0 5C0 [8] 80 64 64 FF C8 B8 00 00
(1709566889.274368) can0 5C0 [8] C0 60 60 FF C8 B8 00 00
(1709566889.759047) can0 5C0 [8] 40 68 68 FF C8 28 00 00
(1709566890.271815) can0 5C0 [8] 80 64 64 FF C8 B8 00 00
(1709566890.761396) can0 5C0 [8] C0 60 60 FF C8 B8 00 00
(1709566891.251556) can0 5C0 [8] 40 68 68 FF C8 28 00 00
(1709566891.751912) can0 5C0 [8] 80 64 64 FF C8 B8 00 00
(1709566892.252294) can0 5C0 [8] C0 60 60 FF C8 B8 00 00
(1709566892.753320) can0 5C0 [8] 40 68 68 FF C8 28 00 00
(1709566893.246356) can0 5C0 [8] 80 64 64 FF C8 B8 00 00
(1709566893.744015) can0 5C0 [8] C0 60 60 FF C8 B8 00 00
(1709566894.251284) can0 5C0 [8] 40 68 68 FF C8 28 00 00
(1709566894.745185) can0 5C0 [8] 80 64 64 FF C8 B8 00 00
(1709566895.247371) can0 5C0 [8] C0 60 60 FF C8 B8 00 00
(1709566895.740299) can0 5C0 [8] 40 68 68 FF C8 28 00 00
(1709566896.241571) can0 5C0 [8] 80 64 64 FF C8 B8 00 00
(1709566896.738491) can0 5C0 [8] C0 60 60 FF C8 B8 00 00
(1709566897.235195) can0 5C0 [8] 40 68 68 FF C8 28 00 00
(1709566897.807543) can0 5C0 [8] 80 64 64 FF C8 B8 00 00
(1709566898.252223) can0 5C0 [8] C0 60 60 FF C8 B8 00 00
(1709566898.730884) can0 5C0 [8] 40 68 68 FF C8 28 00 00
(1709566899.241757) can0 5C0 [8] 80 64 64 FF C8 B8 00 00
(1709566899.728926) can0 5C0 [8] C0 60 60 FE C8 B8 00 00
(1709566900.264848) can0 5C0 [8] 40 68 68 FE C8 28 00 00
(1709566900.725430) can0 5C0 [8] 80 64 64 FE C8 B8 00 00
(1709566901.241914) can0 5C0 [8] C0 60 60 FE C8 B8 00 00
(1709566901.722897) can0 5C0 [8] 40 68 68 FE C8 28 00 00
(1709566902.231677) can0 5C0 [8] 80 64 64 FE C8 B8 00 00
(1709566902.721609) can0 5C0 [8] C0 60 60 FE C8 B8 00 00
(1709566903.220283) can0 5C0 [8] 40 68 68 FE C8 28 00 00
(1709566903.716402) can0 5C0 [8] 80 64 64 FE C8 B8 00 00
(1709566905.255175) can0 5C0 [8] 80 64 64 FE C8 B8 00 00
(1709566905.768397) can0 5C0 [8] C0 60 60 FE C8 B8 00 00
(1709566906.216106) can0 5C0 [8] 40 68 68 FE C8 28 00 00
(1709566906.709129) can0 5C0 [8] 80 64 64 FE C8 B8 00 00
(1709566907.207013) can0 5C0 [8] C0 60 60 FE C8 B8 00 00
(1709566907.756296) can0 5C0 [8] 40 68 68 FE C8 28 00 00
(1709566908.216719) can0 5C0 [8] 80 64 64 FE C8 B8 00 00
(1709566908.703953) can0 5C0 [8] C0 60 60 FE C8 B8 00 00
(1709566909.377483) can0 5C0 [8] 40 68 68 FE C8 28 00 00
(1709566909.751646) can0 5C0 [8] 80 64 64 FE C8 B8 00 00
(1709566910.269333) can0 5C0 [8] C0 60 60 FE C8 B8 00 00
(1709566910.904550) can0 5C0 [8] 40 68 68 FE C8 28 00 00
(1709566911.262779) can0 5C0 [8] 80 64 64 FE C8 B8 00 00
(1709566913.245698) can0 5C0 [8] C0 60 60 FE C8 B8 00 00
(1709566913.719240) can0 5C0 [8] 40 68 68 FE C8 28 00 00
(1709566914.240484) can0 5C0 [8] 80 64 64 FE C8 B8 00 00
(1709566914.748721) can0 5C0 [8] C0 60 60 FE C8 B8 00 00
(1709566915.265590) can0 5C0 [8] 40 68 68 FE C8 28 00 00
(1709566915.752751) can0 5C0 [8] 80 64 64 FE C8 B8 00 00
(1709566916.736054) can0 5C0 [8] 40 68 68 FE C8 28 00 00
(1709566917.184560) can0 5C0 [8] 80 64 64 FE C8 B8 00 00
(1709566917.724200) can0 5C0 [8] C0 60 60 FE C8 B8 00 00
(1709566918.183139) can0 5C0 [8] 40 68 68 FE C8 28 00 00
(1709566918.679784) can0 5C0 [8] 80 64 64 FE C8 B8 00 00
(1709566919.241945) can0 5C0 [8] C0 60 60 FE C8 B8 00 00
(1709566919.687740) can0 5C0 [8] 40 68 68 FE C8 28 00 00
(1709566920.184860) can0 5C0 [8] 80 64 64 FE C8 B8 00 00
(1709566920.671188) can0 5C0 [8] C0 60 60 FE C8 B8 00 00
(1709566921.196380) can0 5C0 [8] 40 68 68 FE C8 28 00 00
(1709566921.682087) can0 5C0 [8] 80 64 64 FE C8 B8 00 00
(1709566922.169444) can0 5C0 [8] C0 60 60 FE C8 B8 00 00
(1709566922.708193) can0 5C0 [8] 40 68 68 FE C8 28 00 00
(1709566923.167576) can0 5C0 [8] 80 64 64 FE C8 B8 00 00
(1709566923.665936) can0 5C0 [8] C0 60 60 FE C8 B8 00 00
(1709566924.162272) can0 5C0 [8] 40 68 68 FE C8 28 00 00
(1709566924.667117) can0 5C0 [8] 80 64 64 FE C8 B8 00 00
(1709566925.159053) can0 5C0 [8] C0 60 60 FE C8 B8 00 00
(1709566925.657268) can0 5C0 [8] 40 68 68 FE C8 28 00 00
(1709566926.161589) can0 5C0 [8] 80 64 64 FE C8 B8 00 00
(1709566926.656187) can0 5C0 [8] C0 60 60 FE C8 B8 00 00
(1709566927.155446) can0 5C0 [8] 40 68 68 FE C8 28 00 00
(1709566927.652518) can0 5C0 [8] 80 64 64 FE C8 B8 00 00
(1709566928.151067) can0 5C0 [8] C0 60 60 FE C8 B8 00 00
(1709566928.651995) can0 5C0 [8] 40 68 68 FE C8 28 00 00
(1709566929.153372) can0 5C0 [8] 80 64 64 FE C8 B8 00 00
(1709566929.647514) can0 5C0 [8] C0 60 60 FE C8 B8 00 00
(1709566930.145706) can0 5C0 [8] 40 68 68 FE C8 28 00 00
(1709566930.646102) can0 5C0 [8] 80 64 64 FE C8 B8 00 00
(1709566931.145360) can0 5C0 [8] C0 60 60 FE C8 B8 00 00
(1709566931.645340) can0 5C0 [8] 40 68 68 FE C8 28 00 00
(1709566932.140503) can0 5C0 [8] 80 64 64 FE C8 B8 00 00
(1709566932.653131) can0 5C0 [8] C0 60 60 FE C8 B8 00 00
(1709566933.137273) can0 5C0 [8] 40 68 68 FE C8 28 00 00
(1709566933.637261) can0 5C0 [8] 80 64 64 FE C8 B8 00 00
(1709566934.138968) can0 5C0 [8] C0 60 60 FE C8 B8 00 00
(1709566934.634028) can0 5C0 [8] 40 68 68 FE C8 28 00 00
(1709566935.132341) can0 5C0 [8] 80 64 64 FE C8 B8 00 00
(1709566935.644228) can0 5C0 [8] C0 60 60 FE C8 B8 00 00
(1709566936.175926) can0 5C0 [8] 40 68 68 FE C8 28 00 00
(1709566936.645959) can0 5C0 [8] 80 64 64 FE C8 B8 00 00
(1709566937.126904) can0 5C0 [8] C0 60 60 FE C8 B8 00 00
(1709566937.625108) can0 5C0 [8] 40 68 68 FE C8 28 00 00
(1709566938.123811) can0 5C0 [8] 80 64 64 FE C8 B8 00 00
(1709566938.646274) can0 5C0 [8] C0 60 60 FE C8 B8 00 00
(1709566939.129411) can0 5C0 [8] 40 68 68 FE C8 28 00 00
(1709566939.681082) can0 5C0 [8] 80 64 64 FE C8 B8 00 00
(1709566940.123761) can0 5C0 [8] C0 60 60 FE C8 B8 00 00
(1709566940.630068) can0 5C0 [8] 40 68 68 FE C8 28 00 00
(1709566941.117770) can0 5C0 [8] 80 64 64 FE C8 B8 00 00
(1709566941.653629) can0 5C0 [8] C0 60 60 FE C8 B8 00 00
(1709566942.118950) can0 5C0 [8] 40 68 68 FE C8 28 00 00
(1709566942.612495) can0 5C0 [8] 80 64 64 FE C8 B8 00 00
(1709566943.109671) can0 5C0 [8] C0 60 60 FE C8 B8 00 00
(1709566943.679304) can0 5C0 [8] 40 68 68 FE C8 28 00 00
(1709566944.153402) can0 5C0 [8] 80 64 64 FE C8 B8 00 00
(1709566944.610887) can0 5C0 [8] C0 60 60 FE C8 B8 00 00
(1709566945.107311) can0 5C0 [8] 40 68 68 FE C8 28 00 00
(1709566945.606625) can0 5C0 [8] 80 64 64 FE C8 B8 00 00
(1709566946.104545) can0 5C0 [8] C0 60 60 FE C8 B8 00 00
(1709566946.603286) can0 5C0 [8] 40 68 68 FE C8 28 00 00
(1709566947.104683) can0 5C0 [8] 80 64 64 FE C8 B8 00 00
(1709566947.599375) can0 5C0 [8] C0 60 60 FE C8 B8 00 00
(1709566948.097111) can0 5C0 [8] 40 68 68 FE C8 28 00 00
(1709566948.595785) can0 5C0 [8] 80 64 64 FE C8 B8 00 00
(1709566949.097341) can0 5C0 [8] C0 60 60 FE C8 B8 00 00
(1709566949.598831) can0 5C0 [8] 40 68 68 FE C8 28 00 00
(1709566950.094186) can0 5C0 [8] 80 64 64 FE C8 B8 00 00
(1709566950.598255) can0 5C0 [8] C0 60 60 FE C8 B8 00 00
(1709566951.091700) can0 5C0 [8] 40 68 68 FE C8 28 00 00
(1709566951.598418) can0 5C0 [8] 80 64 64 FE C8 B8 00 00
(1709566952.091331) can0 5C0 [8] C0 60 60 FE C8 B8 00 00
(1709566952.596038) can0 5C0 [8] 40 68 68 FE C8 28 00 00
(1709566953.086862) can0 5C0 [8] 80 64 64 FE C8 B8 00 00
(1709566953.588608) can0 5C0 [8] C0 60 60 FE C8 B8 00 00
(1709566954.085094) can0 5C0 [8] 40 68 68 FE C8 28 00 00
(1709566954.591380) can0 5C0 [8] 80 64 64 FE C8 B8 00 00
(1709566955.086754) can0 5C0 [8] C0 60 60 FE C8 B8 00 00
(1709566955.588859) can0 5C0 [8] 40 68 68 FE C8 28 00 00
(1709566956.079249) can0 5C0 [8] 80 64 64 FE C8 B8 00 00
(1709566956.580029) can0 5C0 [8] C0 60 60 FE C8 B8 00 00
(1709566957.077363) can0 5C0 [8] 40 68 68 FE C8 28 00 00
(1709566957.581693) can0 5C0 [8] 80 64 64 FE C8 B8 00 00
(1709566958.071922) can0 5C0 [8] C0 60 60 FE C8 B8 00 00
(1709566958.575519) can0 5C0 [8] 40 68 68 FE C8 28 00 00
(1709566959.070804) can0 5C0 [8] 80 64 64 FE C8 B8 00 00
(1709566959.575074) can0 5C0 [8] C0 60 60 FE C8 B8 00 00
(1709566960.070725) can0 5C0 [8] 40 68 68 FE C8 28 00 00
(1709566960.659053) can0 5C0 [8] 80 64 64 FE C8 B8 00 00
(1709566961.109555) can0 5C0 [8] C0 60 60 FE C8 B8 00 00
(1709566961.626630) can0 5C0 [8] 40 68 68 FE C8 28 00 00
(1709566962.072429) can0 5C0 [8] 80 64 64 FE C8 B8 00 00
(1709566962.612598) can0 5C0 [8] C0 60 60 FE C8 B8 00 00
(1709566963.057594) can0 5C0 [8] 40 68 68 FE C8 28 00 00
(1709566963.556733) can0 5C0 [8] 80 64 64 FE C8 B8 00 00
(1709566964.055105) can0 5C0 [8] C0 60 60 FE C8 B8 00 00
(1709566964.553253) can0 5C0 [8] 40 68 68 FE C8 28 00 00
(1709566965.053248) can0 5C0 [8] 80 64 64 FE C8 B8 00 00
(1709566965.551735) can0 5C0 [8] C0 60 60 FE C8 B8 00 00
(1709566966.049686) can0 5C0 [8] 40 68 68 FE C8 28 00 00
(1709566966.548047) can0 5C0 [8] 80 64 64 FE C8 B8 00 00
(1709566967.048809) can0 5C0 [8] C0 60 60 FE C8 B8 00 00
(1709566967.546060) can0 5C0 [8] 40 68 68 FE C8 28 00 00
(1709566968.046597) can0 5C0 [8] 80 64 64 FE C8 B8 00 00
(1709566968.542014) can0 5C0 [8] C0 60 60 FE C8 B8 00 00
(1709566969.041398) can0 5C0 [8] 40 68 68 FE C8 28 00 00
(1709566969.539319) can0 5C0 [8] 80 64 64 FE C8 B8 00 00
(1709566970.056333) can0 5C0 [8] C0 60 60 FE C8 B8 00 00
(1709566970.539848) can0 5C0 [8] 40 68 68 FE C8 28 00 00
(1709566971.047925) can0 5C0 [8] 80 64 64 FE C8 B8 00 00
(1709566971.533132) can0 5C0 [8] C0 60 60 FE C8 B8 00 00
(1709566972.032832) can0 5C0 [8] 40 68 68 FE C8 28 00 00
(1709566972.531705) can0 5C0 [8] 80 64 64 FE C8 B8 00 00
(1709566973.033949) can0 5C0 [8] C0 60 60 FE C8 B8 00 00
(1709566973.528593) can0 5C0 [8] 40 68 68 FE C8 28 00 00
(1709566974.026078) can0 5C0 [8] 80 64 64 FE C8 B8 00 00
(1709566974.566233) can0 5C0 [8] C0 60 60 FE C8 B8 00 00
(1709566975.032792) can0 5C0 [8] 40 68 68 FE C8 28 00 00
(1709566975.527719) can0 5C0 [8] 80 64 64 FE C8 B8 00 00
(1709566976.025065) can0 5C0 [8] C0 60 60 FE C8 B8 00 00
(1709566976.520598) can0 5C0 [8] 40 68 68 FE C8 28 00 00
(1709566977.019036) can0 5C0 [8] 80 64 64 FE C8 B8 00 00
(1709566977.519234) can0 5C0 [8] C0 60 60 FE C8 B8 00 00
(1709566978.020705) can0 5C0 [8] 40 68 68 FE C8 28 00 00
(1709566978.517336) can0 5C0 [8] 80 64 64 FE C8 B8 00 00
(1709566979.013929) can0 5C0 [8] C0 60 60 FE C8 B8 00 00
(1709566979.513574) can0 5C0 [8] 40 68 68 FE C8 28 00 00
(1709566980.017325) can0 5C0 [8] 80 64 64 FE C8 B8 00 00
(1709566980.513060) can0 5C0 [8] C0 60 60 FE C8 B8 00 00
(1709566981.011237) can0 5C0 [8] 40 68 68 FE C8 28 00 00
(1709566981.507830) can0 5C0 [8] 80 64 64 FE C8 B8 00 00
(1709566982.034059) can0 5C0 [8] C0 60 60 FE C8 B8 00 00
(1709566982.564751) can0 5C0 [8] 40 68 68 FE C8 28 00 00
(1709566983.022983) can0 5C0 [8] 80 64 64 FE C8 B8 00 00
(1709566983.505068) can0 5C0 [8] C0 60 60 FE C8 B8 00 00
(1709566984.011158) can0 5C0 [8] 40 68 68 FE C8 28 00 00
(1709566984.499465) can0 5C0 [8] 80 64 64 FE C8 B8 00 00
(1709566985.001547) can0 5C0 [8] C0 60 60 FE C8 B8 00 00
(1709566985.499140) can0 5C0 [8] 40 68 68 FE C8 28 00 00
(1709566986.000204) can0 5C0 [8] 80 64 64 FE C8 B8 00 00
(1709566986.495662) can0 5C0 [8] C0 60 60 FE C8 B8 00 00
(1709566986.993310) can0 5C0 [8] 40 68 68 FE C8 28 00 00
(1709566987.490732) can0 5C0 [8] 80 64 64 FE C8 B8 00 00
(1709566987.995323) can0 5C0 [8] C0 60 60 FE C8 B8 00 00
(1709566988.489678) can0 5C0 [8] 40 68 68 FE C8 28 00 00
(1709566988.987323) can0 5C0 [8] 80 64 64 FE C8 B8 00 00
(1709566989.484399) can0 5C0 [8] C0 60 60 FD C8 B8 00 00
(1709566989.985243) can0 5C0 [8] 40 68 68 FD C8 28 00 00
(1709566990.482484) can0 5C0 [8] 80 64 64 FD C8 B8 00 00
(1709566990.989538) can0 5C0 [8] C0 60 60 FD C8 B8 00 00
(1709566991.479095) can0 5C0 [8] 40 68 68 FD C8 28 00 00
(1709566991.983371) can0 5C0 [8] 80 64 64 FD C8 B8 00 00
(1709566992.477313) can0 5C0 [8] C0 60 60 FD C8 B8 00 00
(1709566992.993244) can0 5C0 [8] 40 68 68 FD C8 28 00 00
(1709566993.476827) can0 5C0 [8] 80 64 64 FD C8 B8 00 00
(1709566993.974692) can0 5C0 [8] C0 60 60 FD C8 B8 00 00
(1709566994.472235) can0 5C0 [8] 40 68 68 FD C8 28 00 00
(1709566994.969659) can0 5C0 [8] 80 64 64 FD C8 B8 00 00
(1709566995.469634) can0 5C0 [8] C0 60 60 FD C8 B8 00 00
(1709566995.968942) can0 5C0 [8] 40 68 68 FD C8 28 00 00
(1709566996.470043) can0 5C0 [8] 80 64 64 FD C8 B8 00 00
(1709566996.963642) can0 5C0 [8] C0 60 60 FD C8 B8 00 00
(1709566997.462906) can0 5C0 [8] 40 68 68 FD C8 28 00 00
(1709566997.961134) can0 5C0 [8] 80 64 64 FD C8 B8 00 00
(1709566998.468886) can0 5C0 [8] C0 60 60 FD C8 B8 00 00
(1709566998.960943) can0 5C0 [8] 40 68 68 FD C8 28 00 00
(1709566999.462774) can0 5C0 [8] 80 64 64 FD C8 B8 00 00
(1709566999.956448) can0 5C0 [8] C0 60 60 FD C8 B8 00 00
(1709567000.455437) can0 5C0 [8] 40 68 68 FD C8 28 00 00
(1709567000.955891) can0 5C0 [8] 80 64 64 FD C8 B8 00 00
(1709567001.456117) can0 5C0 [8] C0 60 60 FD C8 B8 00 00
(1709567001.950616) can0 5C0 [8] 40 68 68 FD C8 28 00 00
(1709567002.448420) can0 5C0 [8] 80 64 64 FD C8 B8 00 00
