 (1743617638.084184)  can0  79B   [8]  02 21 01 00 00 00 00 00
 (1743617638.085227)  can0  7BB   [8]  10 29 61 01 FF FF FA EC
 (1743617638.772673)  can0  79B   [8]  30 00 00 00 00 00 00 00
 (1743617638.776383)  can0  7BB   [8]  21 02 88 FF FF FB 34 FF
 (1743617638.787402)  can0  7BB   [8]  22 FF FF FF 16 C0 2A F8
 (1743617638.795903)  can0  7BB   [8]  23 88 FB 33 18 03 9D 00
 (1743617638.808589)  can0  7BB   [8]  24 5C 29 D0 00 01 E1 FF
 (1743617638.816391)  can0  7BB   [8]  25 00 0A 3D B1 80 00 05

// напряжение ячеек
 (1743617820.732372)  can0  79B   [8]  02 21 02 00 00 00 00 00
 (1743617820.733370)  can0  7BB   [8]  10 C6 61 02 0E 49 0E 47
 (1743617821.247589)  can0  79B   [8]  30 00 00 00 00 00 00 00
 (1743617821.249719)  can0  7BB   [8]  21 0E 44 0E 44 0E 4B 0E
 (1743617821.261651)  can0  7BB   [8]  22 4B 0E 4E 0E 50 0E 44
 (1743617821.269614)  can0  7BB   [8]  23 0E 44 0E 44 0E 46 0E
 (1743617821.279955)  can0  7BB   [8]  24 49 0E 42 0E 46 0E 47
 (1743617821.294764)  can0  7BB   [8]  25 0E 41 0E 40 0E 40 0E
 (1743617821.300481)  can0  7BB   [8]  26 42 0E 44 0E 40 0E 46
 (1743617821.309924)  can0  7BB   [8]  27 0E 3F 0E 40 0E 41 0E
 (1743617821.321227)  can0  7BB   [8]  28 3D 0E 42 0E 40 0E 41
 (1743617821.329900)  can0  7BB   [8]  29 0E 44 0E 46 0E 41 0E
 (1743617821.340616)  can0  7BB   [8]  2A 44 0E 41 0E 42 0E 41
 (1743617821.349919)  can0  7BB   [8]  2B 0E 3F 0E 42 0E 44 0E
 (1743617821.360677)  can0  7BB   [8]  2C 3D 0E 3D 0E 40 0E 3D
 (1743617821.369787)  can0  7BB   [8]  2D 0E 49 0E 49 0E 44 0E
 (1743617821.379914)  can0  7BB   [8]  2E 48 0E 44 0E 46 0E 46
 (1743617821.393675)  can0  7BB   [8]  2F 0E 47 0E 48 0E 3F 0E
 (1743617821.400154)  can0  7BB   [8]  20 42 0E 3F 0E 41 0E 49
 (1743617821.409698)  can0  7BB   [8]  21 0E 44 0E 44 0E 40 0E
 (1743617821.420159)  can0  7BB   [8]  22 3D 0E 3D 0E 3F 0E 3F
 (1743617821.429705)  can0  7BB   [8]  23 0E 3F 0E 42 0E 40 0E
 (1743617821.440122)  can0  7BB   [8]  24 44 0E 47 0E 44 0E 48
 (1743617821.449883)  can0  7BB   [8]  25 0E 3F 0E 44 0E 40 0E
 (1743617821.459869)  can0  7BB   [8]  26 3D 0E 41 0E 40 0E 40
 (1743617821.469808)  can0  7BB   [8]  27 0E 42 0E 40 0E 40 0E
 (1743617821.481095)  can0  7BB   [8]  28 3F 0E 3C 0E 47 0E 44
 (1743617821.493926)  can0  7BB   [8]  29 0E 44 0E 44 0E 44 0E
 (1743617821.502397)  can0  7BB   [8]  2A 41 0E 44 0E 46 0E 46
 (1743617821.509983)  can0  7BB   [8]  2B 0E 42 0E 46 0E 42 88
 (1743617821.521155)  can0  7BB   [8]  2C E7 88 EF FF FF FF FF


// температура по датчикам
 (1743617949.563989)  can0  79B   [8]  02 21 04 00 00 00 00 00
 (1743617949.564116)  can0  7BB   [8]  10 10 61 04 02 20 11 02
 (1743617950.054642)  can0  79B   [8]  30 00 00 00 00 00 00 00
 (1743617950.054663)  can0  7BB   [8]  21 24 11 02 3A 0E 02 4B
 (1743617950.058542)  can0  7BB   [8]  22 0D 0D 00 FF FF FF FF


 (1743618133.007746)  can0  79B   [8]  02 21 84 00 00 00 00 00
 (1743618133.013487)  can0  7BB   [8]  10 16 61 84 32 33 30 4A
 (1743618133.387838)  can0  79B   [8]  30 00 00 00 00 00 00 00
 (1743618133.393014)  can0  7BB   [8]  21 54 31 31 32 35 4B 30
 (1743618133.402505)  can0  7BB   [8]  22 30 31 35 38 35 20 20
 (1743618133.413545)  can0  7BB   [8]  23 20 20 FF FF FF FF FF
