 (1742739615.581216)  can0  603   [1]  00
 (1742739615.599582)  can0  68C   [1]  00
 (1742739615.620933)  can0  1D4   [8]  A0 6D 00 00 42 00 50 FB
 (1742739615.621173)  can0  1F2   [8]  08 64 00 00 00 01 01 06
 (1742739615.621440)  can0  5A9   [8]  FF FF FC FF FF F0 00 00
 (1742739615.627408)  can0  54A   [8]  A0 00 70 02 00 00 00 30
 (1742739615.628367)  can0  54B   [8]  00 08 80 00 04 00 00 00
 (1742739615.629484)  can0  54C   [8]  FF FF 00 00 00 F8 FF 00
 (1742739615.630518)  can0  54F   [8]  14 00 00 00 07 40 00 1E
 (1742739615.631727)  can0  1D4   [8]  9C 6D 00 00 82 00 50 83
 (1742739615.631823)  can0  1F2   [8]  08 64 00 00 00 01 02 07
 (1742739615.631826)  can0  50A   [6]  04 00 00 0D 00 A0
 (1742739615.641231)  can0  1D4   [8]  9F 6D 00 00 C2 00 50 4D
 (1742739615.641288)  can0  1F2   [8]  08 64 00 00 00 01 03 08
 (1742739615.649157)  can0  56E   [1]  46
 (1742739615.651113)  can0  1D4   [8]  9F 6D 00 00 02 00 50 81
 (1742739615.651818)  can0  1F2   [8]  08 64 00 00 00 01 00 05
 (1742739615.651876)  can0  50B   [6]  00 00 00 C0 00 60
 (1742739615.656997)  can0  11A   [8]  00 40 80 55 00 00 01 0D
 (1742739615.662027)  can0  1D4   [8]  9F 6D 00 00 42 06 50 3E
 (1742739615.662087)  can0  1F2   [8]  08 64 00 00 00 01 01 06
 (1742739615.667107)  can0  11A   [8]  00 40 80 55 40 00 02 C0
 (1742739615.671889)  can0  1D4   [8]  9F 6D 00 00 82 06 70 B1
 (1742739615.671970)  can0  1F2   [8]  08 64 00 00 00 02 02 08
 (1742739615.676886)  can0  11A   [8]  00 40 80 AA 80 00 03 D6
 (1742739615.681996)  can0  1D4   [8]  9F 6D 00 00 C2 06 70 76
 (1742739615.682484)  can0  1F2   [8]  08 64 00 00 00 02 03 09
 (1742739615.686774)  can0  11A   [8]  00 40 80 AA C0 00 00 1B
 (1742739615.692584)  can0  1D4   [8]  9F 6D 00 00 02 06 70 BA
 (1742739615.692819)  can0  1F2   [8]  08 64 00 00 00 02 00 06
 (1742739615.692927)  can0  5B9   [5]  07 FF 07 FF 28
 (1742739615.697269)  can0  11A   [8]  00 40 80 55 00 00 01 0D
 (1742739615.702596)  can0  1D4   [8]  9F 6D 00 00 42 06 70 7D
 (1742739615.702659)  can0  1F2   [8]  08 64 00 00 00 02 01 07
 (1742739615.706992)  can0  11A   [8]  01 40 80 55 40 00 02 C7
 (1742739615.712976)  can0  1D4   [8]  9F 6D 00 00 82 06 70 B1
 (1742739615.713167)  can0  1F2   [8]  08 64 00 00 00 02 02 08
 (1742739615.713333)  can0  50C   [6]  00 00 00 01 5D 5F
 (1742739615.713974)  can0  1DB   [8]  7F E0 FF C6 00 00 00 DE
 (1742739615.714019)  can0  1DC   [8]  FF FF FF FF 1F FF FC 6B
 (1742739615.717337)  can0  11A   [8]  01 40 80 AA 80 00 03 D1
 (1742739615.720409)  can0  54A   [8]  12 00 70 02 00 00 00 30
 (1742739615.721402)  can0  54B   [8]  00 08 80 00 04 00 00 00
 (1742739615.722511)  can0  54C   [8]  FF FF 00 00 00 F8 FF 00
 (1742739615.723835)  can0  1D4   [8]  9F 6D 00 00 C2 06 70 76
 (1742739615.724050)  can0  1F2   [8]  08 64 00 00 00 04 03 0B
 (1742739615.724053)  can0  54F   [8]  14 00 00 00 07 80 00 1E
 (1742739615.724054)  can0  1DB   [8]  00 00 FF C6 00 00 01 91
 (1742739615.724175)  can0  1DC   [8]  FF FF FF FF 01 0C D5 84
 (1742739615.726634)  can0  11A   [8]  01 40 80 AA C0 00 00 1C
 (1742739615.733156)  can0  1D4   [8]  9F 6D 00 00 02 06 70 BA
 (1742739615.734088)  can0  1F2   [8]  08 64 00 00 00 04 00 08
 (1742739615.734135)  can0  1DB   [8]  00 00 FF C6 00 00 02 9B
 (1742739615.734137)  can0  1DC   [8]  FF FF FF FF 05 08 C6 58
 (1742739615.734185)  can0  50A   [6]  04 20 00 0D 00 A0
 (1742739615.737121)  can0  11A   [8]  01 40 80 55 00 00 01 0A
 (1742739615.742183)  can0  380   [8]  00 04 10 21 00 00 00 03
 (1742739615.743263)  can0  1D4   [8]  9F 6D 00 00 42 06 70 7D
 (1742739615.743590)  can0  1F2   [8]  08 64 00 00 00 04 01 09
 (1742739615.743877)  can0  1DB   [8]  00 00 FF C6 00 00 03 1E
 (1742739615.744159)  can0  1DC   [8]  FF FF FF FF 08 C0 C3 13
 (1742739615.747567)  can0  11A   [8]  01 40 80 55 40 00 02 C7
 (1742739615.751150)  can0  56E   [1]  46
 (1742739615.752249)  can0  380   [8]  02 04 10 21 00 00 00 16
 (1742739615.753761)  can0  1D4   [8]  9F 6D 00 00 82 06 70 B1
 (1742739615.754986)  can0  1DB   [8]  00 00 C1 86 00 00 00 E8
 (1742739615.755059)  can0  1DC   [8]  FF FF FF FF 0C CC D8 5F
 (1742739615.755061)  can0  1F2   [8]  08 64 00 00 00 04 02 0A
 (1742739615.755123)  can0  50B   [6]  00 00 00 C0 00 60
 (1742739615.757351)  can0  11A   [8]  01 40 80 AA 80 00 03 D1
 (1742739615.763953)  can0  1DB   [8]  00 00 C1 86 00 00 01 6D
 (1742739615.764444)  can0  1DC   [8]  FF FF FF FF 01 0C D5 84
 (1742739615.766001)  can0  1D4   [8]  9F 6D 00 00 C2 06 70 76
 (1742739615.766051)  can0  1F2   [8]  08 64 00 00 00 04 03 0B
 (1742739615.766631)  can0  11A   [8]  01 40 80 AA C0 00 00 1C
 (1742739615.773976)  can0  1DB   [8]  00 00 C1 86 00 00 02 67
 (1742739615.774021)  can0  1DC   [8]  FF FF FF FF 05 08 C6 58
 (1742739615.774593)  can0  1D4   [8]  A0 6D 00 00 02 06 70 07
 (1742739615.774635)  can0  1F2   [8]  08 64 00 00 00 04 00 08
 (1742739615.777387)  can0  11A   [8]  01 40 80 55 00 00 01 0A
 (1742739615.784194)  can0  1DB   [8]  00 00 C1 86 00 00 03 E2
 (1742739615.784343)  can0  1DC   [8]  FF FF FF FF 08 C0 C3 13
 (1742739615.784893)  can0  1D4   [8]  A0 6D 00 00 42 06 70 C0
 (1742739615.784936)  can0  1F2   [8]  08 64 00 00 00 04 01 09
 (1742739615.786892)  can0  11A   [8]  01 40 80 55 40 00 02 C7
 (1742739615.793721)  can0  1DB   [8]  00 00 C1 86 00 00 00 E8
 (1742739615.794287)  can0  1DC   [8]  FF FF FF FF 0C CC D8 5F
 (1742739615.795128)  can0  1D4   [8]  A0 6D 00 00 82 06 70 0C
 (1742739615.795186)  can0  1F2   [8]  08 64 00 00 00 04 02 0A
 (1742739615.797362)  can0  11A   [8]  01 40 80 AA 80 00 03 D1
 (1742739615.803862)  can0  1DB   [8]  00 00 C1 86 00 00 01 6D
 (1742739615.804266)  can0  1DC   [8]  FF FF FF FF 01 0C D5 84
 (1742739615.805000)  can0  55B   [8]  BD 00 AA 00 FF C0 10 D9
 (1742739615.805043)  can0  1D4   [8]  A0 6D 00 00 C2 06 70 CB
 (1742739615.805359)  can0  1F2   [8]  08 64 00 00 00 04 03 0B
 (1742739615.806587)  can0  11A   [8]  01 40 80 AA C0 00 00 1C
 (1742739615.813687)  can0  1DB   [8]  00 00 C1 A6 00 00 02 28
 (1742739615.814199)  can0  1DC   [8]  FF FF FF FF 05 08 C6 58
 (1742739615.815215)  can0  1D4   [8]  A0 6D 00 00 02 06 70 07
 (1742739615.815942)  can0  1F2   [8]  08 64 00 00 00 04 00 08
 (1742739615.815989)  can0  50C   [6]  00 00 00 02 5D 63
 (1742739615.817221)  can0  11A   [8]  01 40 80 55 00 00 01 0A
 (1742739615.820532)  can0  54A   [8]  A0 00 70 02 00 00 00 30
 (1742739615.821550)  can0  54B   [8]  00 08 80 00 04 00 00 00
 (1742739615.822549)  can0  54C   [8]  FF FF 00 00 00 F8 FF 00
 (1742739615.823538)  can0  54F   [8]  21 00 00 00 07 C0 0A 21
 (1742739615.824300)  can0  1DB   [8]  00 00 C1 A6 00 00 03 AD
 (1742739615.824343)  can0  1DC   [8]  FF FF FF FF 08 C0 C3 13
 (1742739615.825348)  can0  1D4   [8]  A0 6D 00 00 42 06 70 C0
 (1742739615.825760)  can0  1F2   [8]  08 64 00 00 00 04 01 09
 (1742739615.826796)  can0  11A   [8]  01 40 80 55 40 00 02 C7
 (1742739615.832353)  can0  380   [8]  02 04 10 21 00 00 00 27
 (1742739615.832807)  can0  5BF   [8]  00 00 00 00 10 00 00 00
 (1742739615.833708)  can0  1DB   [8]  00 00 C1 A6 00 00 00 A7
 (1742739615.834265)  can0  1DC   [8]  FF FF FF FF 0C CC D8 5F
 (1742739615.835679)  can0  1D4   [8]  A0 6D 00 00 82 06 70 0C
 (1742739615.836751)  can0  1F2   [8]  08 64 00 00 00 04 02 0A
 (1742739615.836805)  can0  284   [8]  00 00 00 00 00 00 01 87
 (1742739615.836807)  can0  50A   [6]  04 40 00 0D 00 A0
 (1742739615.837291)  can0  11A   [8]  01 40 80 AA 80 00 03 D1
 (1742739615.843639)  can0  1DB   [8]  00 00 C1 A6 00 00 01 22
 (1742739615.844014)  can0  1DC   [8]  FF FF FF FF 01 0C D5 84
 (1742739615.845803)  can0  1D4   [8]  A0 6D 00 00 C2 06 70 CB
 (1742739615.846167)  can0  1F2   [8]  08 64 00 00 00 04 03 0B
 (1742739615.846535)  can0  11A   [8]  01 40 80 AA C0 00 00 1C
 (1742739615.853064)  can0  56E   [1]  46
 (1742739615.853701)  can0  1DB   [8]  00 00 C1 A6 00 00 02 28
 (1742739615.854262)  can0  1DC   [8]  FF FF FF FF 05 08 C6 58
 (1742739615.856189)  can0  1D4   [8]  A0 6D 00 00 02 06 70 07
 (1742739615.857141)  can0  1F2   [8]  08 64 00 00 00 04 00 08
 (1742739615.857405)  can0  284   [8]  00 00 00 00 00 00 02 88
 (1742739615.857446)  can0  50B   [6]  00 00 00 C0 00 60
 (1742739615.857583)  can0  11A   [8]  01 40 80 55 00 00 01 0A
 (1742739615.864184)  can0  1DB   [8]  00 00 C1 A6 00 00 03 AD
 (1742739615.864285)  can0  1DC   [8]  FF FF FF FF 08 C0 C3 13
 (1742739615.866915)  can0  1D4   [8]  A0 6D 00 00 42 06 70 C0
 (1742739615.867067)  can0  1F2   [8]  08 64 00 00 00 04 01 09
 (1742739615.867986)  can0  284   [8]  00 00 00 00 00 00 03 89
 (1742739615.868039)  can0  11A   [8]  01 40 80 55 40 00 02 C7
 (1742739615.873835)  can0  1DB   [8]  00 00 C1 A6 00 00 00 A7
 (1742739615.874064)  can0  1DC   [8]  FF FF FF FF 0C CC D8 5F
 (1742739615.876460)  can0  1D4   [8]  A0 6D 00 00 82 06 70 0C
 (1742739615.876771)  can0  1F2   [8]  08 64 00 00 00 04 02 0A
 (1742739615.877088)  can0  11A   [8]  01 40 80 AA 80 00 03 D1
 (1742739615.883648)  can0  1DB   [8]  00 00 C1 A6 00 00 01 22
 (1742739615.883983)  can0  1DC   [8]  FF FF FF FF 01 0C D5 84
 (1742739615.887213)  can0  11A   [8]  01 40 80 AA C0 00 00 1C
 (1742739615.887277)  can0  1D4   [8]  A0 6D 00 00 C2 06 70 CB
 (1742739615.887279)  can0  1F2   [8]  08 64 00 00 00 04 03 0B
 (1742739615.894297)  can0  1DB   [8]  00 00 C1 A6 00 00 02 28
 (1742739615.894360)  can0  1DC   [8]  FF FF FF FF 05 08 C6 58
 (1742739615.897115)  can0  1D4   [8]  A0 6D 00 00 02 06 70 07
 (1742739615.897177)  can0  1F2   [8]  08 64 00 00 00 04 00 08
 (1742739615.897428)  can0  11A   [8]  01 40 80 55 00 00 01 0A
 (1742739615.897662)  can0  284   [8]  00 00 00 00 00 00 04 8A
 (1742739615.904561)  can0  1DB   [8]  00 00 C1 A6 00 00 03 AD
 (1742739615.904633)  can0  1DC   [8]  FF FF FF FF 08 C0 C3 13
 (1742739615.904635)  can0  55B   [8]  BD 00 55 00 FF C0 11 1B
 (1742739615.907191)  can0  11A   [8]  01 40 80 55 40 00 02 C7
 (1742739615.907555)  can0  1D4   [8]  A0 6D 00 00 42 06 70 C0
 (1742739615.907912)  can0  1F2   [8]  08 64 00 00 00 04 01 09
 (1742739615.908247)  can0  1DA   [8]  FF 00 00 00 7F FE 01 97
 (1742739615.914233)  can0  1DB   [8]  00 00 C1 A6 00 00 00 A7
 (1742739615.914348)  can0  1DC   [8]  FF FF FF FF 0C CC D8 5F
 (1742739615.918899)  can0  11A   [8]  01 40 80 AA 80 00 03 D1
 (1742739615.918963)  can0  1D4   [8]  A0 6D 00 00 82 06 70 0C
 (1742739615.918965)  can0  1F2   [8]  08 64 00 00 00 04 02 0A
 (1742739615.918966)  can0  284   [8]  00 00 00 00 00 00 05 8B
 (1742739615.918968)  can0  1DA   [8]  FF 00 00 00 7F FE 02 9D
 (1742739615.918969)  can0  50C   [6]  00 00 00 03 B2 9A
 (1742739615.920581)  can0  54A   [8]  12 00 70 02 00 00 00 30
 (1742739615.921545)  can0  54B   [8]  00 08 80 00 04 00 00 00
 (1742739615.922532)  can0  54C   [8]  FF FF 00 00 00 F8 FF 00
 (1742739615.923543)  can0  54F   [8]  21 00 00 00 07 00 0A 21
 (1742739615.923921)  can0  1DB   [8]  00 00 C1 A6 00 00 01 22
 (1742739615.924418)  can0  1DC   [8]  FF FF FF FF 01 0C D5 84
 (1742739615.926574)  can0  11A   [8]  01 40 80 AA C0 00 00 1C
 (1742739615.927860)  can0  1D4   [8]  A0 6D 00 00 C2 06 70 CB
 (1742739615.928539)  can0  1F2   [8]  08 64 00 00 00 05 03 0C
 (1742739615.928628)  can0  1DA   [8]  02 00 00 00 7F FE 03 64
 (1742739615.932831)  can0  380   [8]  02 04 10 21 00 00 00 38
 (1742739615.932927)  can0  5BF   [8]  00 00 00 00 18 00 00 19
 (1742739615.933650)  can0  1DB   [8]  00 00 C1 A6 00 00 02 28
 (1742739615.934026)  can0  1DC   [8]  FF FF FF FF 05 08 C6 58
 (1742739615.937426)  can0  11A   [8]  01 40 80 55 00 00 01 0A
 (1742739615.938064)  can0  1D4   [8]  A0 6D 00 00 02 06 70 07
 (1742739615.938750)  can0  1DA   [8]  02 00 00 00 7F FE 00 6E
 (1742739615.939149)  can0  1F2   [8]  08 64 00 00 00 07 00 0B
 (1742739615.939297)  can0  284   [8]  00 00 00 00 00 00 06 8C
 (1742739615.939301)  can0  50A   [6]  04 60 00 0D 00 A0
 (1742739615.943987)  can0  1DB   [8]  00 00 C1 A6 00 00 03 AD
 (1742739615.944044)  can0  1DC   [8]  FF FF FF FF 08 C0 C3 13
 (1742739615.947222)  can0  11A   [8]  01 40 80 55 40 00 02 C7
 (1742739615.948225)  can0  1DA   [8]  02 00 00 00 7F FF 01 7C
 (1742739615.948692)  can0  1D4   [8]  A0 6D 00 00 42 06 70 C0
 (1742739615.949509)  can0  1F2   [8]  08 64 00 00 00 07 01 0C
 (1742739615.949577)  can0  284   [8]  00 00 00 00 00 00 07 8D
 (1742739615.953922)  can0  1DB   [8]  00 00 C1 A6 00 00 00 A7
 (1742739615.954021)  can0  1DC   [8]  FF FF FF FF 0C CC D8 5F
 (1742739615.955438)  can0  56E   [1]  46
 (1742739615.957411)  can0  11A   [8]  01 40 80 AA 80 00 03 D1
 (1742739615.958348)  can0  1DA   [8]  02 00 00 00 7F FF 02 76
 (1742739615.959579)  can0  1D4   [8]  A0 6D 00 00 82 06 70 0C
 (1742739615.959644)  can0  1F2   [8]  08 64 00 00 00 07 02 0D
 (1742739615.959646)  can0  50B   [6]  00 00 00 C0 00 60
 (1742739615.964163)  can0  1DB   [8]  00 00 C1 A6 00 00 01 22
 (1742739615.964230)  can0  1DC   [8]  FF FF FF FF 01 0C D5 84
 (1742739615.966553)  can0  11A   [8]  01 40 80 AA C0 00 00 1C
 (1742739615.968174)  can0  1DA   [8]  02 00 00 00 7F FF 03 F3
 (1742739615.968922)  can0  1D4   [8]  A0 6D 00 00 C2 06 70 CB
 (1742739615.969754)  can0  1F2   [8]  08 64 00 00 00 07 03 0E
 (1742739615.969811)  can0  284   [8]  00 00 00 00 00 00 08 8E
 (1742739615.973934)  can0  1DB   [8]  00 00 C1 EE 00 00 02 06
 (1742739615.974017)  can0  1DC   [8]  FF FF FF FF 05 08 C6 58
 (1742739615.978633)  can0  11A   [8]  01 40 80 55 00 00 01 0A
 (1742739615.978741)  can0  1DA   [8]  02 00 00 00 7F FF 00 F9
 (1742739615.979469)  can0  1D4   [8]  A0 6D 00 00 02 06 70 07
 (1742739615.979569)  can0  1F2   [8]  08 64 00 00 00 07 00 0B
 (1742739615.984144)  can0  1DB   [8]  00 00 C1 EE 00 00 03 83
 (1742739615.984223)  can0  1DC   [8]  FF FF FF FF 08 C0 C3 13
 (1742739615.987077)  can0  11A   [8]  01 40 80 55 40 00 02 C7
 (1742739615.988253)  can0  1DA   [8]  02 00 00 00 7F FF 01 7C
 (1742739615.989426)  can0  1D4   [8]  A0 6D 00 00 42 06 70 C0
 (1742739615.989881)  can0  1F2   [8]  08 64 00 00 00 0A 01 0F
 (1742739615.990387)  can0  284   [8]  00 00 00 00 00 00 09 8F
 (1742739615.993926)  can0  1DB   [8]  00 00 C1 EE 00 00 00 89
 (1742739615.994008)  can0  1DC   [8]  FF FF FF FF 0C CC D8 5F
 (1742739615.997466)  can0  11A   [8]  01 40 80 AA 80 00 03 D1
 (1742739615.998066)  can0  1DA   [8]  02 00 00 00 7F FF 02 76
 (1742739615.998476)  can0  55A   [8]  00 2D 2B 00 5F 2D 3A E8
 (1742739615.999459)  can0  1D4   [8]  A0 6D 00 00 82 46 70 91
 (1742739615.999891)  can0  1F2   [8]  08 64 00 00 00 0D 02 03
 (1742739616.004395)  can0  1DB   [8]  00 00 C1 EE 00 00 01 0C
 (1742739616.004459)  can0  1DC   [8]  FF FF FF FF 01 0C D5 84
 (1742739616.004461)  can0  55B   [8]  BD 00 55 00 FF C0 12 11
 (1742739616.006482)  can0  11A   [8]  01 40 80 AA C0 00 00 1C
 (1742739616.008248)  can0  1DA   [8]  02 00 00 00 7F FF 03 F3
 (1742739616.010225)  can0  1D4   [8]  A0 6D 00 00 C2 46 70 56
 (1742739616.010400)  can0  1F2   [8]  08 64 00 00 00 0D 03 04
 (1742739616.010495)  can0  284   [8]  00 00 00 00 00 00 0A 90
 (1742739616.013956)  can0  1DB   [8]  00 00 C1 EE 00 00 02 06
 (1742739616.014096)  can0  1DC   [8]  FF FF FF FF 05 08 C6 58
 (1742739616.017391)  can0  11A   [8]  01 40 80 55 00 00 01 0A
 (1742739616.018194)  can0  1DA   [8]  02 00 00 00 7F FF 00 F9
 (1742739616.020509)  can0  1D4   [8]  A0 6D 00 00 02 46 70 9A
 (1742739616.020800)  can0  1F2   [8]  08 64 00 00 00 0D 00 01
 (1742739616.020902)  can0  50C   [6]  00 00 00 00 B2 A6
 (1742739616.020929)  can0  54A   [8]  A0 00 70 02 00 00 00 30
 (1742739616.021662)  can0  54B   [8]  00 08 80 00 04 00 00 00
 (1742739616.022602)  can0  54C   [8]  FF FF 00 00 00 F8 FF 00
 (1742739616.023590)  can0  1DB   [8]  00 00 C1 EE 00 00 03 83
 (1742739616.023962)  can0  1DC   [8]  FF FF FF FF 08 C0 C3 13
 (1742739616.024344)  can0  54F   [8]  21 00 00 00 07 40 0A 21
 (1742739616.027168)  can0  11A   [8]  01 40 80 55 40 00 02 C7
 (1742739616.028216)  can0  1DA   [8]  02 00 00 00 7F FF 01 7C
 (1742739616.030758)  can0  1D4   [8]  A0 6D 00 00 42 46 70 5D
 (1742739616.031281)  can0  1F2   [8]  08 64 00 00 00 0D 01 02
 (1742739616.031335)  can0  284   [8]  00 00 00 00 00 00 0B 91
 (1742739616.032875)  can0  380   [8]  02 04 10 21 00 00 00 05
 (1742739616.032929)  can0  5BF   [8]  00 00 00 00 18 00 00 2A
 (1742739616.033729)  can0  1DB   [8]  00 00 C1 EE 00 00 00 89
 (1742739616.034418)  can0  1DC   [8]  FF FF FF FF 0C CC D8 5F
 (1742739616.037383)  can0  11A   [8]  01 40 80 AA 80 00 03 D1
 (1742739616.038276)  can0  1DA   [8]  02 00 00 00 7F FF 02 76
 (1742739616.040629)  can0  1D4   [8]  A0 6D 00 00 82 46 70 91
 (1742739616.041506)  can0  1F2   [8]  08 64 00 00 00 0D 02 03
 (1742739616.041567)  can0  50A   [6]  04 00 00 0D 00 A0
 (1742739616.044496)  can0  1DB   [8]  00 00 C1 EE 00 00 01 0C
 (1742739616.045247)  can0  1DC   [8]  FF FF FF FF 01 0C D5 84
 (1742739616.046725)  can0  11A   [8]  01 40 80 AA C0 00 00 1C
 (1742739616.048164)  can0  1DA   [8]  02 00 00 00 7F FF 03 F3
 (1742739616.050740)  can0  1D4   [8]  A0 6D 00 00 C2 46 70 56
 (1742739616.051366)  can0  1F2   [8]  08 64 00 00 00 0D 03 04
 (1742739616.051480)  can0  284   [8]  00 00 00 00 00 00 0C 92
 (1742739616.053681)  can0  1DB   [8]  00 00 C1 EE 00 00 02 06
 (1742739616.054018)  can0  1DC   [8]  FF FF FF FF 05 08 C6 58
 (1742739616.056917)  can0  56E   [1]  46
 (1742739616.057357)  can0  11A   [8]  01 40 80 55 00 00 01 0A
 (1742739616.058078)  can0  1DA   [8]  02 00 00 00 7F FF 00 F9
 (1742739616.060961)  can0  1D4   [8]  A0 6D 00 00 02 46 70 9A
 (1742739616.061590)  can0  1F2   [8]  08 64 00 00 00 0D 00 01
 (1742739616.061774)  can0  50B   [6]  00 00 00 C0 00 60
 (1742739616.063876)  can0  1DB   [8]  00 00 C1 EE 00 00 03 83
 (1742739616.064994)  can0  1DC   [8]  FF FF FF FF 08 C0 C3 13
 (1742739616.067276)  can0  11A   [8]  01 40 80 55 40 00 02 C7
 (1742739616.068658)  can0  1DA   [8]  02 00 00 00 7F FF 01 7C
 (1742739616.071430)  can0  1D4   [8]  A0 6D 00 00 42 46 70 5D
 (1742739616.071488)  can0  1F2   [8]  08 64 00 00 00 0D 01 02
 (1742739616.071774)  can0  284   [8]  00 00 00 00 00 00 0D 93
 (1742739616.073462)  can0  1DB   [8]  00 20 C1 EE 00 00 00 D8
 (1742739616.073724)  can0  1DC   [8]  FF FF FF FF 0C CC D8 5F
 (1742739616.077251)  can0  11A   [8]  01 40 80 AA 80 00 03 D1
 (1742739616.078050)  can0  1DA   [8]  02 00 00 00 7F FF 02 76
 (1742739616.081561)  can0  1D4   [8]  A0 6D 00 00 82 46 70 91
 (1742739616.082102)  can0  1F2   [8]  08 64 00 00 00 0D 02 03
 (1742739616.083594)  can0  1DB   [8]  00 20 C1 EE 00 00 01 5D
 (1742739616.083944)  can0  1DC   [8]  FF FF FF FF 01 0C D5 84
 (1742739616.086619)  can0  11A   [8]  01 40 80 AA C0 00 00 1C
 (1742739616.088092)  can0  1DA   [8]  02 00 00 00 7F FF 03 F3
 (1742739616.092206)  can0  1D4   [8]  A0 6D 00 00 C2 46 70 56
 (1742739616.092262)  can0  1F2   [8]  08 64 00 00 00 0D 03 04
 (1742739616.092286)  can0  284   [8]  00 00 00 00 00 00 0E 94
 (1742739616.093542)  can0  1DB   [8]  00 20 C1 EE 00 00 02 57
 (1742739616.093959)  can0  1DC   [8]  FF FF FF FF 05 08 C6 58
 (1742739616.097316)  can0  11A   [8]  01 40 80 55 00 00 01 0A
 (1742739616.098135)  can0  1DA   [8]  02 00 00 00 7F FF 00 F9
 (1742739616.098520)  can0  55A   [8]  00 2D 2B 00 5F 2D 3A E8
 (1742739616.102022)  can0  1D4   [8]  A0 6D 00 00 02 46 70 9A
 (1742739616.102370)  can0  1F2   [8]  08 64 00 00 00 0D 00 01
 (1742739616.103795)  can0  1DB   [8]  00 20 C1 EE 00 00 03 D2
 (1742739616.104199)  can0  1DC   [8]  FF FF FF FF 08 C0 C3 13
 (1742739616.104618)  can0  55B   [8]  BD 00 55 00 FF C0 13 94
 (1742739616.107071)  can0  11A   [8]  01 40 80 55 40 00 02 C7
 (1742739616.108068)  can0  1DA   [8]  02 00 00 00 7F FF 01 7C
 (1742739616.112397)  can0  1D4   [8]  A0 6D 00 00 42 46 70 5D
 (1742739616.113184)  can0  1F2   [8]  08 64 00 00 00 0D 01 02
 (1742739616.113245)  can0  284   [8]  00 00 00 00 00 00 0F 95
 (1742739616.113755)  can0  1DB   [8]  00 20 C1 EE 00 00 00 D8
 (1742739616.114269)  can0  1DC   [8]  FF FF FF FF 0C CC D8 5F
 (1742739616.117217)  can0  11A   [8]  01 40 80 AA 80 00 03 D1
 (1742739616.118069)  can0  1DA   [8]  02 00 00 00 7F FF 02 76
 (1742739616.120708)  can0  54A   [8]  12 00 70 02 00 00 00 30
 (1742739616.121681)  can0  54B   [8]  01 08 80 12 04 00 00 00
 (1742739616.122463)  can0  1D4   [8]  A0 6D 00 00 82 46 70 91
 (1742739616.123048)  can0  1F2   [8]  08 64 00 00 00 0D 02 03
 (1742739616.123091)  can0  50C   [6]  00 00 00 01 B2 31
 (1742739616.123692)  can0  54C   [8]  65 66 00 00 00 00 60 00
 (1742739616.123735)  can0  1DB   [8]  00 20 C1 EE 00 00 01 5D
 (1742739616.124222)  can0  1DC   [8]  FF FF FF FF 01 0C D5 84
 (1742739616.124281)  can0  54F   [8]  21 00 00 00 07 80 8A 21
 (1742739616.126645)  can0  11A   [8]  01 40 80 AA C0 00 00 1C
 (1742739616.128122)  can0  1DA   [8]  02 00 00 00 7F FF 03 F3
 (1742739616.132803)  can0  380   [8]  02 04 10 21 00 00 00 16
 (1742739616.133175)  can0  1D4   [8]  A0 6D 00 00 C2 46 70 56
 (1742739616.133485)  can0  1F2   [8]  08 64 00 00 00 0D 03 04
 (1742739616.133553)  can0  284   [8]  00 00 00 00 00 00 10 96
 (1742739616.133865)  can0  5A9   [8]  FF FF FC FF FF F0 00 00
 (1742739616.133912)  can0  1DB   [8]  00 20 C1 EE 00 00 02 57
 (1742739616.134309)  can0  1DC   [8]  FF FF FF FF 05 08 C6 58
 (1742739616.134397)  can0  5BF   [8]  00 00 00 00 18 00 00 3B
 (1742739616.137223)  can0  11A   [8]  01 40 80 55 00 00 01 0A
 (1742739616.138058)  can0  1DA   [8]  02 00 00 00 7F FF 00 F9
 (1742739616.142964)  can0  1D4   [8]  A0 6D 00 00 02 46 70 9A
 (1742739616.143738)  can0  1F2   [8]  08 64 00 00 00 0D 00 01
 (1742739616.143928)  can0  50A   [6]  04 20 00 0D 00 A0
 (1742739616.143945)  can0  1DB   [8]  00 20 C1 EE 00 00 03 D2
 (1742739616.144107)  can0  1DC   [8]  FF FF FF FF 08 C0 C3 13
 (1742739616.147012)  can0  11A   [8]  01 40 80 55 40 00 02 C7
 (1742739616.148183)  can0  1DA   [8]  02 00 00 00 7F FF 01 7C
 (1742739616.153213)  can0  1D4   [8]  A0 6D 00 00 42 46 70 5D
 (1742739616.154126)  can0  1F2   [8]  08 64 00 00 00 0E 01 03
 (1742739616.154338)  can0  1DB   [8]  00 20 C1 EE 00 00 00 D8
 (1742739616.154379)  can0  1DC   [8]  FF FF FF FF 0C CC D8 5F
 (1742739616.154496)  can0  284   [8]  00 00 00 00 00 00 11 97
 (1742739616.157331)  can0  11A   [8]  01 40 80 AA 80 00 03 D1
 (1742739616.158082)  can0  1DA   [8]  02 00 00 00 7F FF 02 76
 (1742739616.158902)  can0  56E   [1]  46
 (1742739616.164541)  can0  1D4   [8]  A0 6D 00 00 82 46 70 91
 (1742739616.164595)  can0  1DB   [8]  00 00 C1 EE 00 00 01 0C
 (1742739616.164596)  can0  1DC   [8]  FF FF FF FF 01 0C D5 84
 (1742739616.164597)  can0  1F2   [8]  08 64 00 00 00 0E 02 04
 (1742739616.164740)  can0  50B   [6]  00 00 00 C0 00 60
 (1742739616.166417)  can0  11A   [8]  01 40 80 AA C0 00 00 1C
 (1742739616.168147)  can0  1DA   [8]  02 00 00 00 00 01 03 93
 (1742739616.174567)  can0  1DB   [8]  00 00 C1 EE 00 00 02 06
 (1742739616.174883)  can0  1D4   [8]  A0 6D 00 00 C2 46 70 56
 (1742739616.174886)  can0  1DC   [8]  FF FF FF FF 05 08 C6 58
 (1742739616.175039)  can0  1F2   [8]  08 64 00 00 00 0E 03 05
 (1742739616.175153)  can0  284   [8]  00 00 00 00 00 00 12 98
 (1742739616.177227)  can0  11A   [8]  01 40 80 55 00 00 01 0A
 (1742739616.178061)  can0  1DA   [8]  02 00 00 00 00 01 00 99
 (1742739616.183936)  can0  1DB   [8]  00 00 C1 EE 00 00 03 83
 (1742739616.184091)  can0  1DC   [8]  FF FF FF FF 08 C0 C3 13
 (1742739616.184430)  can0  1D4   [8]  F7 07 00 00 02 46 70 40
 (1742739616.184447)  can0  1F2   [8]  08 64 00 00 00 0F 00 03
 (1742739616.187157)  can0  11A   [8]  01 40 80 55 40 00 02 C7
 (1742739616.189467)  can0  1DA   [8]  02 00 00 00 00 01 01 1C
 (1742739616.193904)  can0  1DB   [8]  00 00 C1 EE 00 00 00 89
 (1742739616.193948)  can0  1DC   [8]  FF FF FF FF 0C CC D8 5F
 (1742739616.194675)  can0  1D4   [8]  F7 07 00 00 42 46 70 87
 (1742739616.194740)  can0  1F2   [8]  08 64 00 00 00 0F 01 04
 (1742739616.195165)  can0  284   [8]  00 00 00 00 00 00 13 99
 (1742739616.197266)  can0  11A   [8]  01 40 80 AA 80 00 03 D1
 (1742739616.198060)  can0  1DA   [8]  02 00 00 00 00 01 02 16
 (1742739616.198425)  can0  55A   [8]  00 2D 2B 00 5F 2D 3A E8
 (1742739616.204126)  can0  1DB   [8]  00 00 C1 EE 00 00 01 0C
 (1742739616.204486)  can0  1DC   [8]  FF FF FF FF 01 0C D5 84
 (1742739616.204664)  can0  55B   [8]  BD 00 55 00 FF C0 10 9E
 (1742739616.204706)  can0  1D4   [8]  F7 07 00 00 82 46 70 4B
 (1742739616.205341)  can0  1F2   [8]  08 64 00 00 00 0F 02 05
 (1742739616.205392)  can0  5B9   [5]  07 FF 07 FF 28
 (1742739616.206554)  can0  11A   [8]  01 40 80 AA C0 00 00 1C
 (1742739616.208061)  can0  1DA   [8]  02 00 00 00 00 01 03 93
 (1742739616.213970)  can0  1DB   [8]  00 00 C1 EE 00 00 02 06
 (1742739616.214651)  can0  1DC   [8]  FF FF FF FF 05 08 C6 58
 (1742739616.214708)  can0  5BC   [8]  FF C3 2A 28 C0 05 20 96
 (1742739616.215749)  can0  5C0   [8]  40 50 52 00 C8 00 00 00
 (1742739616.215818)  can0  1D4   [8]  F7 07 00 00 C2 46 70 8C
 (1742739616.215821)  can0  1F2   [8]  08 64 00 00 00 0F 03 06
 (1742739616.215822)  can0  284   [8]  00 00 00 00 00 00 14 9A
 (1742739616.217255)  can0  11A   [8]  01 40 80 55 00 00 01 0A
 (1742739616.218054)  can0  1DA   [8]  02 00 00 00 00 01 00 99
 (1742739616.220788)  can0  54A   [8]  A0 00 70 02 00 00 00 30
 (1742739616.221789)  can0  54B   [8]  01 08 80 12 04 00 00 00
 (1742739616.222796)  can0  54C   [8]  65 66 00 00 00 00 60 00
 (1742739616.223669)  can0  1DB   [8]  00 00 C1 EE 00 00 03 83
 (1742739616.224389)  can0  1DC   [8]  FF FF FF FF 08 C0 C3 13
 (1742739616.224431)  can0  54F   [8]  21 01 00 00 07 C0 8A 21
 (1742739616.224912)  can0  1D4   [8]  F7 07 00 00 02 46 70 40
 (1742739616.225513)  can0  1F2   [8]  08 64 00 00 00 0F 00 03
 (1742739616.225554)  can0  50C   [6]  00 00 00 02 B2 0D
 (1742739616.226868)  can0  11A   [8]  01 40 80 55 40 00 02 C7
 (1742739616.228140)  can0  1DA   [8]  02 00 00 00 00 01 01 1C
 (1742739616.232710)  can0  380   [8]  02 04 10 21 00 00 00 27
 (1742739616.233107)  can0  5BF   [8]  00 00 00 00 18 00 00 08
 (1742739616.233566)  can0  1DB   [8]  00 00 C1 EE 00 00 00 89
 (1742739616.233967)  can0  1DC   [8]  FF FF FF FF 0C CC D8 5F
 (1742739616.235123)  can0  1D4   [8]  F7 07 00 00 42 46 70 87
 (1742739616.235496)  can0  1F2   [8]  08 64 00 00 00 0F 01 04
 (1742739616.235837)  can0  284   [8]  00 00 00 00 00 00 15 9B
 (1742739616.237238)  can0  11A   [8]  01 40 80 AA 80 00 03 D1
 (1742739616.238025)  can0  1DA   [8]  02 00 00 00 00 01 02 16
 (1742739616.243545)  can0  1DB   [8]  00 00 C1 EE 00 00 01 0C
 (1742739616.243945)  can0  1DC   [8]  FF FF FF FF 01 0C D5 84
 (1742739616.245480)  can0  1D4   [8]  F7 07 00 00 82 46 70 4B
 (1742739616.246261)  can0  1F2   [8]  08 64 00 00 00 0F 02 05
 (1742739616.246321)  can0  50A   [6]  04 40 00 0D 00 A0
 (1742739616.246779)  can0  11A   [8]  01 40 80 AA C0 00 00 1C
 (1742739616.248158)  can0  1DA   [8]  02 00 00 00 00 01 03 93
 (1742739616.253681)  can0  1DB   [8]  00 00 C1 EE 00 00 02 06
 (1742739616.254135)  can0  1DC   [8]  FF FF FF FF 05 08 C6 58
 (1742739616.255701)  can0  1D4   [8]  F7 07 00 00 C2 46 70 8C
 (1742739616.256537)  can0  1F2   [8]  08 64 00 00 00 0F 03 06
 (1742739616.256593)  can0  284   [8]  00 00 00 00 00 00 16 9C
 (1742739616.257302)  can0  11A   [8]  01 40 80 55 00 00 01 0A
 (1742739616.258028)  can0  1DA   [8]  02 00 00 00 00 01 00 99
 (1742739616.261018)  can0  56E   [1]  46
 (1742739616.263784)  can0  1DB   [8]  00 00 C1 EE 00 00 03 83
 (1742739616.264808)  can0  1DC   [8]  FF FF FF FF 08 C0 C3 13
 (1742739616.265958)  can0  1D4   [8]  F7 07 00 00 03 46 70 BB
 (1742739616.266792)  can0  1F2   [8]  08 64 00 00 00 11 00 06
 (1742739616.267231)  can0  50B   [6]  00 00 00 C0 00 60
 (1742739616.268569)  can0  11A   [8]  01 40 80 55 40 00 02 C7
 (1742739616.268846)  can0  1DA   [8]  02 00 00 00 00 01 01 1C
 (1742739616.274040)  can0  1DB   [8]  00 00 C1 EE 00 00 00 89
 (1742739616.274106)  can0  1DC   [8]  FF FF FF FF 0C CC D8 5F
 (1742739616.275999)  can0  1D4   [8]  F7 07 00 00 43 46 70 7C
 (1742739616.276308)  can0  1F2   [8]  08 64 00 00 00 11 01 07
 (1742739616.276557)  can0  284   [8]  00 00 00 00 00 00 17 9D
 (1742739616.277119)  can0  11A   [8]  01 40 80 AA 80 00 03 D1
 (1742739616.278025)  can0  1DA   [8]  02 00 00 00 00 01 02 16
 (1742739616.283616)  can0  1DB   [8]  00 00 C1 EE 00 00 01 0C
 (1742739616.283914)  can0  1DC   [8]  FF FF FF FF 01 0C D5 84
 (1742739616.286545)  can0  1D4   [8]  F7 07 00 00 83 46 70 B0
 (1742739616.286686)  can0  11A   [8]  01 40 80 AA C0 00 00 1C
 (1742739616.287013)  can0  1F2   [8]  08 64 00 00 00 11 02 08
 (1742739616.288070)  can0  1DA   [8]  02 00 00 00 00 01 03 93
 (1742739616.294184)  can0  1DB   [8]  00 00 C1 EE 00 00 02 06
 (1742739616.294277)  can0  1DC   [8]  FF FF FF FF 05 08 C6 58
 (1742739616.296592)  can0  1D4   [8]  F7 07 00 00 C3 46 70 77
 (1742739616.297099)  can0  1F2   [8]  08 64 00 00 00 11 03 09
 (1742739616.297844)  can0  284   [8]  00 00 00 00 00 00 18 9E
 (1742739616.297904)  can0  11A   [8]  01 40 80 55 00 00 01 0A
 (1742739616.298720)  can0  1DA   [8]  0E 00 00 00 00 01 00 BD
 (1742739616.298768)  can0  55A   [8]  00 2D 2B 00 5F 2D 42 E8
 (1742739616.304065)  can0  1DB   [8]  FF E0 C1 EE 00 00 03 C3
 (1742739616.304248)  can0  1DC   [8]  FF FF FF FF 08 C0 C3 13
 (1742739616.304331)  can0  55B   [8]  BD 00 55 00 FF C0 11 1B
 (1742739616.306914)  can0  1D4   [8]  F7 07 00 00 03 46 70 BB
 (1742739616.307684)  can0  1F2   [8]  08 64 00 00 00 11 00 06
 (1742739616.307729)  can0  11A   [8]  01 40 80 55 40 00 02 C7
 (1742739616.308091)  can0  1DA   [8]  2F 00 00 00 00 01 01 DF
 (1742739616.313689)  can0  1DB   [8]  FF C0 C1 EE 00 00 00 98
 (1742739616.314226)  can0  1DC   [8]  FF FF FF FF 0C CC D8 5F
 (1742739616.317089)  can0  1D4   [8]  F7 07 00 00 43 46 70 7C
 (1742739616.317645)  can0  11A   [8]  01 40 80 AA 80 00 03 D1
 (1742739616.317709)  can0  1F2   [8]  08 64 00 00 00 11 01 07
 (1742739616.318420)  can0  284   [8]  00 00 00 00 00 00 19 9F
 (1742739616.318474)  can0  1DA   [8]  42 00 00 00 00 01 02 53
 (1742739616.320982)  can0  54A   [8]  12 00 70 02 00 00 00 30
 (1742739616.321944)  can0  54B   [8]  01 08 80 12 04 00 00 00
 (1742739616.322931)  can0  54C   [8]  65 66 00 00 00 00 60 00
 (1742739616.323636)  can0  1DB   [8]  FF 80 C1 EE 00 00 01 BF
 (1742739616.325134)  can0  1DC   [8]  FF FF FF FF 01 0C D5 84
 (1742739616.325147)  can0  54F   [8]  21 01 00 00 07 00 8A 21
 (1742739616.329011)  can0  11A   [8]  01 40 80 AA C0 00 00 1C
 (1742739616.329083)  can0  1D4   [8]  F7 07 00 00 83 46 70 B0
 (1742739616.329084)  can0  1F2   [8]  08 64 00 00 00 11 02 08
 (1742739616.329085)  can0  50C   [6]  00 00 00 03 B2 9A
 (1742739616.329086)  can0  1DA   [8]  5D 00 00 00 00 01 03 8B
 (1742739616.333153)  can0  380   [8]  02 04 10 21 00 00 00 38
 (1742739616.333196)  can0  5BF   [8]  00 00 00 00 18 00 00 19
 (1742739616.333605)  can0  1DB   [8]  FF 60 C1 AE 00 00 02 19
 (1742739616.334440)  can0  1DC   [8]  FF FF FF FF 05 08 C6 58
 (1742739616.337552)  can0  11A   [8]  01 40 80 55 00 00 01 0A
 (1742739616.337602)  can0  1D4   [8]  F7 07 00 00 C3 46 70 77
 (1742739616.337838)  can0  1F2   [8]  08 64 00 00 00 11 03 09
 (1742739616.338066)  can0  284   [8]  00 00 00 00 00 00 1A A0
 (1742739616.338295)  can0  1DA   [8]  74 00 00 00 00 01 00 5E
 (1742739616.344004)  can0  1DB   [8]  FF 40 C1 AE 00 00 03 CD
 (1742739616.344073)  can0  1DC   [8]  FF FF FF FF 08 C0 C3 13
 (1742739616.347372)  can0  11A   [8]  01 40 80 55 40 00 02 C7
 (1742739616.348617)  can0  1D4   [8]  F7 07 00 00 03 46 70 BB
 (1742739616.348653)  can0  1F2   [8]  08 64 00 00 00 11 00 06
 (1742739616.348654)  can0  1DA   [8]  89 00 00 00 00 01 01 A7
 (1742739616.348655)  can0  50A   [6]  04 60 00 0D 00 A0
 (1742739616.354020)  can0  1DB   [8]  FF 20 C1 AE 00 00 00 34
 (1742739616.354124)  can0  1DC   [8]  FF FF FF FF 0C CC D8 5F
 (1742739616.357728)  can0  11A   [8]  01 40 80 AA 80 00 03 D1
 (1742739616.358193)  can0  1D4   [8]  F7 07 00 00 43 46 70 7C
 (1742739616.358748)  can0  1DA   [8]  97 00 00 00 00 01 02 F7
 (1742739616.359277)  can0  1F2   [8]  08 64 00 00 00 11 01 07
 (1742739616.359385)  can0  284   [8]  00 00 00 00 00 00 1B A1
 (1742739616.362993)  can0  56E   [1]  46
 (1742739616.363540)  can0  1DB   [8]  FF 00 C1 AE 00 00 01 E0
 (1742739616.363969)  can0  1DC   [8]  FF FF FF FF 01 0C D5 84
 (1742739616.366479)  can0  11A   [8]  01 40 80 AA C0 00 00 1C
 (1742739616.368000)  can0  1DA   [8]  A2 00 00 00 00 01 03 F9
 (1742739616.368576)  can0  1D4   [8]  F7 07 00 00 83 46 70 B0
 (1742739616.368793)  can0  1F2   [8]  08 64 00 00 00 11 02 08
 (1742739616.368893)  can0  50B   [6]  00 00 00 C0 00 60
 (1742739616.373643)  can0  1DB   [8]  FF 00 C1 AE 00 00 02 EA
 (1742739616.374017)  can0  1DC   [8]  FF FF FF FF 05 08 C6 58
 (1742739616.377213)  can0  11A   [8]  01 40 80 55 00 00 01 0A
 (1742739616.377987)  can0  1DA   [8]  AA 00 00 00 00 01 00 CB
 (1742739616.378455)  can0  1D4   [8]  F7 07 00 00 C3 46 70 77
 (1742739616.379165)  can0  1F2   [8]  08 64 00 00 00 11 03 09
 (1742739616.379223)  can0  284   [8]  00 00 00 00 00 00 1C A2
 (1742739616.383573)  can0  1DB   [8]  FF 00 C1 AE 00 00 03 6F
 (1742739616.384055)  can0  1DC   [8]  FF FF FF FF 08 C0 C3 13
 (1742739616.386956)  can0  11A   [8]  01 40 80 55 40 00 02 C7
 (1742739616.388005)  can0  1DA   [8]  B1 00 00 00 00 01 01 0F
 (1742739616.388708)  can0  1D4   [8]  F7 07 00 00 03 46 70 BB
 (1742739616.389033)  can0  1F2   [8]  08 64 00 00 00 11 00 06
 (1742739616.389391)  can0  284   [8]  00 00 00 00 00 00 1D A3
 (1742739616.393554)  can0  1DB   [8]  FF 00 C1 AE 00 00 00 65
 (1742739616.393969)  can0  1DC   [8]  FF FF FF FF 0C CC D8 5F
 (1742739616.397313)  can0  11A   [8]  01 40 80 AA 80 00 03 D1
 (1742739616.398117)  can0  1DA   [8]  B5 00 00 00 00 01 02 19
 (1742739616.398634)  can0  55A   [8]  00 2D 2B 00 5F 2D 42 E8
 (1742739616.399523)  can0  1D4   [8]  F7 07 00 00 43 46 70 7C
 (1742739616.399569)  can0  1F2   [8]  08 64 00 00 00 11 01 07
 (1742739616.404204)  can0  1DB   [8]  FF 20 C1 AE 00 00 01 B1
 (1742739616.404268)  can0  1DC   [8]  FF FF FF FF 01 0C D5 84
 (1742739616.404278)  can0  55B   [8]  BD 00 AA 00 FF C0 12 56
 (1742739616.406381)  can0  11A   [8]  01 40 80 AA C0 00 00 1C
 (1742739616.407906)  can0  1DA   [8]  B9 00 00 00 00 01 03 B8
 (1742739616.409115)  can0  1D4   [8]  F7 07 00 00 83 46 70 B0
 (1742739616.409428)  can0  1F2   [8]  08 64 00 00 00 11 02 08
 (1742739616.409646)  can0  284   [8]  00 00 00 00 00 00 1E A4
 (1742739616.413537)  can0  1DB   [8]  FF 60 C1 AA 00 00 02 41
 (1742739616.413936)  can0  1DC   [8]  6E 03 2F FD 05 08 C6 5C
 (1742739616.417248)  can0  11A   [8]  01 40 80 55 00 00 01 0A
 (1742739616.418032)  can0  1DA   [8]  BB 00 00 00 00 01 00 BC
 (1742739616.419574)  can0  1D4   [8]  F7 07 00 00 C3 46 70 77
 (1742739616.419906)  can0  1F2   [8]  08 64 00 00 00 11 03 09
 (1742739616.420924)  can0  54A   [8]  A0 00 70 02 00 00 00 30
 (1742739616.421888)  can0  54B   [8]  01 08 80 12 04 00 00 00
 (1742739616.422869)  can0  54C   [8]  65 66 00 00 00 00 60 00
 (1742739616.423530)  can0  1DB   [8]  FF 80 C1 AA 00 00 03 F6
 (1742739616.424146)  can0  1DC   [8]  6E 03 2F FD 08 C0 C3 17
 (1742739616.424190)  can0  54F   [8]  21 01 00 00 07 40 8A 21
 (1742739616.427044)  can0  11A   [8]  01 40 80 55 40 00 02 C7
 (1742739616.428102)  can0  1DA   [8]  BC 00 00 00 00 01 01 2C
 (1742739616.429937)  can0  1D4   [8]  F7 07 00 00 03 46 70 BB
 (1742739616.430821)  can0  1F2   [8]  08 64 00 00 00 11 00 06
 (1742739616.430879)  can0  284   [8]  00 00 00 00 00 00 1F A5
 (1742739616.430881)  can0  50C   [6]  00 00 00 00 5D C8
 (1742739616.432938)  can0  380   [8]  02 04 10 21 00 00 00 05
 (1742739616.433405)  can0  5BF   [8]  00 00 00 00 18 00 00 2A
 (1742739616.434181)  can0  1DB   [8]  FF A0 C1 AA 00 00 00 AD
 (1742739616.434270)  can0  1DC   [8]  6E 03 2F FD 0C CC D8 5B
 (1742739616.437212)  can0  11A   [8]  01 40 80 AA 80 00 03 D1
 (1742739616.437999)  can0  1DA   [8]  BE 00 00 00 00 01 02 28
 (1742739616.440152)  can0  1D4   [8]  F7 07 00 00 43 46 70 7C
 (1742739616.440208)  can0  1F2   [8]  08 64 00 00 00 11 01 07
 (1742739616.443437)  can0  1DB   [8]  FF A0 C1 AA 00 00 01 28
 (1742739616.443753)  can0  1DC   [8]  6E 03 2F FD 01 0C D5 80
 (1742739616.446511)  can0  11A   [8]  01 40 80 AA C0 00 00 1C
 (1742739616.454119)  can0  1DA   [8]  BF 00 00 00 00 01 03 AA
 (1742739616.454200)  can0  1D4   [8]  F7 07 00 00 83 46 70 B0
 (1742739616.454203)  can0  1F2   [8]  08 64 00 00 00 11 02 08
 (1742739616.454204)  can0  284   [8]  00 00 00 00 00 00 20 A6
 (1742739616.454205)  can0  50A   [6]  04 00 00 0D 00 A0
 (1742739616.454205)  can0  1DB   [8]  FF C0 C1 AA 00 00 02 D1
 (1742739616.454206)  can0  1DC   [8]  6E 03 2F FD 05 08 C6 5C
 (1742739616.457136)  can0  11A   [8]  01 40 80 55 00 00 01 0A
 (1742739616.457878)  can0  1DA   [8]  C0 00 00 00 00 01 00 58
 (1742739616.460946)  can0  1D4   [8]  F7 07 00 00 C3 46 70 77
 (1742739616.461015)  can0  1F2   [8]  08 64 00 00 00 11 03 09
 (1742739616.464106)  can0  1DB   [8]  FF E0 C1 AA 00 00 03 05
 (1742739616.464175)  can0  1DC   [8]  6E 03 2F FD 08 C0 C3 17
 (1742739616.465047)  can0  56E   [1]  46
 (1742739616.467021)  can0  11A   [8]  01 40 80 55 40 00 02 C7
 (1742739616.468342)  can0  1DA   [8]  C1 00 00 00 00 01 01 DA
 (1742739616.471109)  can0  1D4   [8]  F7 07 00 00 03 46 70 BB
 (1742739616.471176)  can0  1F2   [8]  08 64 00 00 00 11 00 06
 (1742739616.472005)  can0  284   [8]  00 00 00 00 00 00 21 A7
 (1742739616.472056)  can0  50B   [6]  00 00 00 C0 00 60
 (1742739616.473925)  can0  1DB   [8]  FF E0 C1 AA 00 00 00 0F
 (1742739616.475339)  can0  1DC   [8]  6E 03 2F FD 0C CC D8 5B
 (1742739616.477254)  can0  11A   [8]  01 40 80 AA 80 00 03 D1
 (1742739616.477993)  can0  1DA   [8]  C1 00 00 00 00 01 02 D0
 (1742739616.481023)  can0  1D4   [8]  F7 07 00 00 43 46 70 7C
 (1742739616.481581)  can0  1F2   [8]  08 64 00 00 00 11 01 07
 (1742739616.483591)  can0  1DB   [8]  FF E0 C1 AA 00 00 01 8A
 (1742739616.483990)  can0  1DC   [8]  6E 03 2F FD 01 0C D5 80
 (1742739616.486646)  can0  11A   [8]  01 40 80 AA C0 00 00 1C
 (1742739616.488083)  can0  1DA   [8]  C1 00 00 00 00 01 03 55
 (1742739616.491536)  can0  1D4   [8]  F7 07 00 00 83 46 70 B0
 (1742739616.491730)  can0  1F2   [8]  08 64 00 00 00 11 02 08
 (1742739616.491828)  can0  284   [8]  00 00 00 00 00 00 22 A8
 (1742739616.493940)  can0  1DB   [8]  FF E0 C1 AA 00 00 02 80
 (1742739616.494012)  can0  1DC   [8]  6E 03 2F FD 05 08 C6 5C
 (1742739616.497366)  can0  11A   [8]  01 40 80 55 00 00 01 0A
 (1742739616.498000)  can0  1DA   [8]  C2 00 00 00 00 01 00 56
 (1742739616.498385)  can0  55A   [8]  00 2D 2B 00 5F 2D 42 E8
 (1742739616.501439)  can0  1D4   [8]  F7 07 00 00 C3 46 70 77
 (1742739616.501833)  can0  1F2   [8]  08 64 00 00 00 11 03 09
 (1742739616.503721)  can0  1DB   [8]  FF E0 C1 AA 00 00 03 05
 (1742739616.504355)  can0  1DC   [8]  6E 03 2F FD 08 C0 C3 17
 (1742739616.504396)  can0  55B   [8]  BD 00 AA 00 FF C0 13 D3
 (1742739616.506946)  can0  11A   [8]  01 40 80 55 40 00 02 C7
 (1742739616.507960)  can0  1DA   [8]  C2 00 00 00 00 01 01 D3
 (1742739616.512312)  can0  1D4   [8]  F7 07 00 00 03 46 70 BB
 (1742739616.512604)  can0  1F2   [8]  08 64 00 00 00 11 00 06
 (1742739616.512708)  can0  284   [8]  00 00 00 00 00 00 23 A9
 (1742739616.513553)  can0  1DB   [8]  FF E0 C1 AA 00 00 00 0F
 (1742739616.513981)  can0  1DC   [8]  6E 03 2F FD 0C CC D8 5B
 (1742739616.517218)  can0  11A   [8]  01 40 80 AA 80 00 03 D1
 (1742739616.517988)  can0  1DA   [8]  C2 00 00 00 00 01 02 D9
 (1742739616.521205)  can0  54A   [8]  12 00 70 02 00 00 00 30
 (1742739616.522044)  can0  1D4   [8]  F7 07 00 00 43 46 70 7C
 (1742739616.522585)  can0  1F2   [8]  08 64 00 00 00 11 01 07
 (1742739616.522688)  can0  54B   [8]  01 08 80 12 04 00 00 00
 (1742739616.523012)  can0  54C   [8]  65 66 00 00 00 00 60 00
 (1742739616.523492)  can0  1DB   [8]  FF E0 C1 AA 00 00 01 8A
 (1742739616.524123)  can0  1DC   [8]  6E 03 2F FD 01 0C D5 80
 (1742739616.524165)  can0  54F   [8]  21 01 00 00 07 80 8A 21
 (1742739616.526485)  can0  11A   [8]  01 40 80 AA C0 00 00 1C
 (1742739616.528058)  can0  1DA   [8]  C2 00 00 00 00 01 03 5C
 (1742739616.532219)  can0  1D4   [8]  F7 07 00 00 83 46 70 B0
 (1742739616.532432)  can0  1F2   [8]  08 64 00 00 00 11 02 08
 (1742739616.532878)  can0  284   [8]  00 00 00 00 00 00 24 AA
 (1742739616.532924)  can0  380   [8]  02 04 10 21 00 00 00 16
 (1742739616.533235)  can0  50C   [6]  00 00 00 01 5D 5F
 (1742739616.533471)  can0  5BF   [8]  00 00 00 00 18 00 00 3B
 (1742739616.533867)  can0  1DB   [8]  FF E0 C1 AA 00 00 02 80
 (1742739616.533898)  can0  1DC   [8]  6E 03 2F FD 05 08 C6 5C
 (1742739616.537090)  can0  11A   [8]  01 40 80 55 00 00 01 0A
 (1742739616.537839)  can0  1DA   [8]  C2 00 00 00 00 01 00 56
 (1742739616.542910)  can0  1D4   [8]  F7 07 00 00 C3 46 70 77
 (1742739616.542962)  can0  1F2   [8]  08 64 00 00 00 11 03 09
 (1742739616.543362)  can0  1DB   [8]  FF E0 C1 AA 00 00 03 05
 (1742739616.543773)  can0  1DC   [8]  6E 03 2F FD 08 C0 C3 17
 (1742739616.546993)  can0  11A   [8]  01 40 80 55 40 00 02 C7
 (1742739616.548115)  can0  1DA   [8]  C2 00 00 00 00 01 01 D3
 (1742739616.552860)  can0  1D4   [8]  F7 07 00 00 03 46 70 BB
 (1742739616.553230)  can0  1F2   [8]  08 64 00 00 00 11 00 06
 (1742739616.553565)  can0  284   [8]  00 00 00 00 00 00 25 AB
 (1742739616.554158)  can0  50A   [6]  04 20 00 0D 00 A0
 (1742739616.554320)  can0  1DB   [8]  FF E0 C1 AA 00 00 00 0F
 (1742739616.554360)  can0  1DC   [8]  6E 03 2F FD 0C CC D8 5B
 (1742739616.557537)  can0  11A   [8]  01 40 80 AA 80 00 03 D1
 (1742739616.558021)  can0  1DA   [8]  C2 00 08 00 00 01 02 F0
 (1742739616.562981)  can0  1D4   [8]  F7 07 00 00 43 46 70 7C
 (1742739616.563490)  can0  1F2   [8]  08 64 00 00 00 11 01 07
 (1742739616.564178)  can0  1DB   [8]  00 00 C1 AA 00 00 01 CA
 (1742739616.564248)  can0  1DC   [8]  6E 03 2F FD 01 0C D5 80
 (1742739616.566627)  can0  11A   [8]  01 40 80 AA C0 00 00 1C
 (1742739616.567075)  can0  56E   [1]  46
 (1742739616.568060)  can0  1DA   [8]  C3 00 08 00 00 01 03 72
 (1742739616.573188)  can0  1D4   [8]  F7 07 00 00 83 46 70 B0
 (1742739616.573823)  can0  1F2   [8]  00 64 00 00 00 12 02 01
 (1742739616.573867)  can0  1DB   [8]  00 00 C1 AA 00 00 02 C0
 (1742739616.574549)  can0  1DC   [8]  6E 03 2F FD 05 08 C6 5C
 (1742739616.574616)  can0  284   [8]  00 00 00 00 00 00 26 AC
 (1742739616.574618)  can0  50B   [6]  00 00 00 C0 00 60
 (1742739616.577222)  can0  11A   [8]  01 40 80 55 00 00 01 0A
 (1742739616.577949)  can0  1DA   [8]  C3 00 08 00 00 01 00 78
 (1742739616.584039)  can0  1D4   [8]  F7 07 00 00 C3 46 70 77
 (1742739616.584221)  can0  1DB   [8]  00 00 C1 AA 00 00 03 45
 (1742739616.584224)  can0  1DC   [8]  6E 03 2F FD 08 C0 C3 17
 (1742739616.584318)  can0  1F2   [8]  00 64 00 00 00 12 03 02
 (1742739616.586994)  can0  11A   [8]  01 40 80 55 40 00 02 C7
 (1742739616.587964)  can0  1DA   [8]  C3 00 08 00 00 01 01 FD
 (1742739616.593645)  can0  1DB   [8]  00 00 C1 AA 00 00 00 4F
 (1742739616.594331)  can0  1D4   [8]  F7 07 00 00 03 46 70 BB
 (1742739616.594396)  can0  1DC   [8]  6E 03 2F FD 0C CC D8 5B
 (1742739616.594398)  can0  1F2   [8]  00 64 00 00 00 12 00 0F
 (1742739616.594750)  can0  284   [8]  00 00 00 00 00 00 27 AD
 (1742739616.597279)  can0  11A   [8]  01 40 80 AA 80 00 03 D1
 (1742739616.597979)  can0  1DA   [8]  C3 00 08 00 00 01 02 F7
 (1742739616.598345)  can0  55A   [8]  00 2D 2B 00 5F 2D 4A E8
 (1742739616.604055)  can0  1DB   [8]  00 00 C1 AA 00 00 01 CA
 (1742739616.604105)  can0  1D4   [8]  F7 07 00 00 43 46 70 7C
 (1742739616.604807)  can0  1DC   [8]  6E 03 2F FD 01 0C D5 80
 (1742739616.604868)  can0  1F2   [8]  00 64 00 00 00 12 01 00
 (1742739616.604870)  can0  55B   [8]  BD 00 AA 00 FF C0 10 D9
 (1742739616.606491)  can0  11A   [8]  01 40 80 AA C0 00 00 1C
 (1742739616.608165)  can0  1DA   [8]  C3 00 08 00 00 01 03 72
 (1742739616.613796)  can0  1DB   [8]  00 00 C1 AA 00 00 02 C0
 (1742739616.614986)  can0  1DC   [8]  6E 03 2F FD 05 08 C6 5C
 (1742739616.615041)  can0  1D4   [8]  F7 07 00 00 83 46 70 B0
 (1742739616.615043)  can0  1F2   [8]  00 64 00 00 00 12 02 01
 (1742739616.615599)  can0  284   [8]  00 00 00 00 00 00 28 AE
 (1742739616.617265)  can0  11A   [8]  01 40 80 55 00 00 01 0A
 (1742739616.617976)  can0  1DA   [8]  C3 00 08 00 00 01 00 78
 (1742739616.621069)  can0  54A   [8]  A0 00 70 02 00 00 00 30
 (1742739616.622022)  can0  54B   [8]  01 08 80 12 04 00 00 00
 (1742739616.623029)  can0  54C   [8]  65 66 00 00 00 00 60 00
 (1742739616.623489)  can0  1DB   [8]  00 00 C1 AA 00 00 03 45
 (1742739616.623879)  can0  1DC   [8]  6E 03 2F FD 08 C0 C3 17
 (1742739616.624449)  can0  54F   [8]  21 01 00 00 07 C0 8A 21
 (1742739616.624706)  can0  1D4   [8]  F7 07 00 00 C3 46 70 77
 (1742739616.624856)  can0  1F2   [8]  00 64 00 00 00 12 03 02
 (1742739616.627059)  can0  11A   [8]  01 40 80 55 40 00 02 C7
 (1742739616.628064)  can0  1DA   [8]  C3 00 08 00 00 01 01 FD
 (1742739616.633613)  can0  380   [8]  02 04 10 21 00 00 00 27
 (1742739616.633689)  can0  5BF   [8]  00 00 00 00 18 00 00 08
 (1742739616.635110)  can0  1DB   [8]  00 00 C1 AA 00 00 00 4F
 (1742739616.635162)  can0  1DC   [8]  6E 03 2F FD 0C CC D8 5B
 (1742739616.635827)  can0  1D4   [8]  F7 07 00 00 03 46 70 BB
 (1742739616.635885)  can0  1F2   [8]  00 64 00 00 00 12 00 0F
 (1742739616.635983)  can0  284   [8]  00 00 00 00 00 00 29 AF
 (1742739616.635988)  can0  50C   [6]  00 00 00 02 5D 63
 (1742739616.637199)  can0  11A   [8]  01 40 80 AA 80 00 03 D1
 (1742739616.637941)  can0  1DA   [8]  C3 00 08 00 00 01 02 F7
 (1742739616.643950)  can0  1DB   [8]  00 00 C1 AA 00 00 01 CA
 (1742739616.644062)  can0  1DC   [8]  6E 03 2F FD 01 0C D5 80
 (1742739616.644910)  can0  1D4   [8]  F7 07 00 00 43 46 70 7C
 (1742739616.645406)  can0  1F2   [8]  00 64 00 00 00 12 01 00
 (1742739616.645977)  can0  5A9   [8]  FF FF FC 10 83 D0 00 00
 (1742739616.646571)  can0  11A   [8]  01 40 80 AA C0 00 00 1C
 (1742739616.648053)  can0  1DA   [8]  C3 00 08 00 00 01 03 72
 (1742739616.653525)  can0  1DB   [8]  00 00 C1 AA 00 00 02 C0
 (1742739616.653877)  can0  1DC   [8]  6E 03 2F FD 05 08 C6 5C
 (1742739616.655092)  can0  1D4   [8]  F7 07 00 00 83 46 70 B0
 (1742739616.655886)  can0  1F2   [8]  00 64 00 00 00 12 02 01
 (1742739616.655955)  can0  284   [8]  00 00 00 00 00 00 2A B0
 (1742739616.655957)  can0  50A   [6]  04 40 00 0D 00 A0
 (1742739616.657212)  can0  11A   [8]  01 40 80 55 00 00 01 0A
 (1742739616.658122)  can0  1DA   [8]  C3 00 08 00 00 01 00 78
 (1742739616.664036)  can0  1DB   [8]  00 00 C1 AA 00 00 03 45
 (1742739616.664126)  can0  1DC   [8]  6E 03 2F FD 08 C0 C3 17
 (1742739616.665374)  can0  1D4   [8]  F7 07 00 00 C3 46 70 77
 (1742739616.666432)  can0  1F2   [8]  00 64 00 00 00 12 03 02
 (1742739616.666958)  can0  11A   [8]  01 40 80 55 40 00 02 C7
 (1742739616.667973)  can0  1DA   [8]  C3 00 08 00 00 01 01 FD
 (1742739616.668913)  can0  56E   [1]  46
 (1742739616.673842)  can0  1DB   [8]  00 00 C1 AA 00 00 00 4F
 (1742739616.673893)  can0  1DC   [8]  6E 03 2F FD 0C CC D8 5B
 (1742739616.675556)  can0  1D4   [8]  F7 07 00 00 07 46 70 5D
 (1742739616.676505)  can0  1F2   [8]  10 64 00 00 00 14 00 02
 (1742739616.676600)  can0  284   [8]  00 00 00 00 00 00 2B B1
 (1742739616.676603)  can0  50B   [6]  00 00 00 C0 00 60
 (1742739616.677361)  can0  11A   [8]  01 40 80 AA 80 00 03 D1
 (1742739616.678075)  can0  1DA   [8]  C3 00 08 00 00 01 02 F7
 (1742739616.683975)  can0  1DB   [8]  00 00 C1 AA 00 00 01 CA
 (1742739616.684131)  can0  1DC   [8]  6E 03 2F FD 01 0C D5 80
 (1742739616.686037)  can0  1D4   [8]  F7 07 00 00 47 46 70 9A
 (1742739616.686376)  can0  1F2   [8]  10 64 00 00 00 14 01 03
 (1742739616.686771)  can0  11A   [8]  01 40 80 AA C0 00 00 1C
 (1742739616.687968)  can0  1DA   [8]  C3 64 18 00 00 01 03 2B
 (1742739616.693624)  can0  1DB   [8]  00 00 C1 AA 00 00 02 C0
 (1742739616.694078)  can0  1DC   [8]  6E 03 2F FD 05 08 C6 5C
 (1742739616.696133)  can0  1D4   [8]  F7 07 00 00 87 46 70 56
 (1742739616.696902)  can0  1F2   [8]  10 64 00 00 00 14 02 04
 (1742739616.696955)  can0  284   [8]  00 00 00 00 00 00 2C B2
 (1742739616.697419)  can0  11A   [8]  01 40 80 55 00 00 01 0A
 (1742739616.698161)  can0  1DA   [8]  C3 64 18 00 00 01 00 21
 (1742739616.698607)  can0  55A   [8]  00 2D 2B 00 5F 2D 5A E8
 (1742739616.704050)  can0  1DB   [8]  00 20 C1 AA 00 00 03 14
 (1742739616.704108)  can0  1DC   [8]  6E 03 2F FD 08 C0 C3 17
 (1742739616.704578)  can0  55B   [8]  BD 00 AA 00 FF C0 11 5C
 (1742739616.706984)  can0  1D4   [8]  F7 07 00 00 C7 46 70 91
 (1742739616.707458)  can0  1F2   [8]  10 64 00 00 00 14 03 05
 (1742739616.707605)  can0  11A   [8]  01 40 80 55 40 00 02 C7
 (1742739616.708587)  can0  1DA   [8]  C3 64 18 00 00 01 01 A4
 (1742739616.714219)  can0  1DB   [8]  00 20 C1 AA 00 00 00 1E
 (1742739616.714286)  can0  1DC   [8]  6E 03 2F FD 0C CC D8 5B
 (1742739616.714910)  can0  5BC   [8]  34 C3 2C 28 C1 05 40 1E
 (1742739616.714987)  can0  5C0   [8]  80 50 50 00 C8 D4 00 00
 (1742739616.716719)  can0  1D4   [8]  F7 07 00 00 07 46 70 5D
 (1742739616.717249)  can0  1F2   [8]  10 64 00 00 00 14 00 02
 (1742739616.718349)  can0  284   [8]  00 00 00 00 00 00 2D B3
 (1742739616.718436)  can0  11A   [8]  01 40 80 AA 80 00 03 D1
 (1742739616.718438)  can0  5B9   [5]  00 96 07 FF 28
 (1742739616.718440)  can0  1DA   [8]  C3 64 18 00 00 01 02 AE
 (1742739616.721364)  can0  54A   [8]  12 00 70 02 00 00 00 30
 (1742739616.722205)  can0  54B   [8]  01 08 80 12 04 00 00 00
 (1742739616.723251)  can0  54C   [8]  65 66 00 00 00 00 60 00
 (1742739616.724486)  can0  1DB   [8]  00 00 C1 AA 00 00 01 CA
 (1742739616.724583)  can0  1DC   [8]  6E 03 2F FD 01 0C D5 80
 (1742739616.724585)  can0  54F   [8]  21 01 00 00 07 00 8A 21
 (1742739616.726467)  can0  11A   [8]  01 40 80 AA C0 00 00 1C
 (1742739616.726914)  can0  1D4   [8]  F7 07 00 00 47 46 70 9A
 (1742739616.727268)  can0  1F2   [8]  10 64 00 00 00 14 01 03
 (1742739616.727927)  can0  1DA   [8]  C3 64 18 00 00 01 03 2B
 (1742739616.733093)  can0  380   [8]  02 04 10 21 00 00 00 38
 (1742739616.733316)  can0  5BF   [8]  00 00 00 00 20 00 00 12
 (1742739616.733554)  can0  1DB   [8]  00 00 C1 AA 00 00 02 C0
 (1742739616.733799)  can0  1DC   [8]  6E 03 2F FD 05 08 C6 5C
 (1742739616.736935)  can0  1D4   [8]  F7 07 00 00 87 46 70 56
 (1742739616.737224)  can0  11A   [8]  01 40 80 55 00 00 01 0A
 (1742739616.738138)  can0  1F2   [8]  10 64 00 00 00 14 02 04
 (1742739616.738176)  can0  284   [8]  00 00 00 00 00 00 2E B4
 (1742739616.738178)  can0  50C   [6]  00 00 00 03 5D F4
 (1742739616.738396)  can0  1DA   [8]  C3 64 18 00 00 01 00 21
 (1742739616.743652)  can0  1DB   [8]  00 00 C1 AA 00 00 03 45
 (1742739616.743699)  can0  1DC   [8]  6E 03 2F FD 08 C0 C3 17
 (1742739616.747333)  can0  11A   [8]  01 40 80 55 40 00 02 C7
 (1742739616.748376)  can0  1D4   [8]  F7 07 00 00 C7 46 70 91
 (1742739616.748487)  can0  1F2   [8]  10 64 00 00 00 14 03 05
 (1742739616.748491)  can0  1DA   [8]  C3 64 18 00 00 01 01 A4
 (1742739616.754176)  can0  1DB   [8]  00 00 C1 AA 00 00 00 4F
 (1742739616.754294)  can0  1DC   [8]  6E 03 2F FD 0C CC D8 5B
 (1742739616.757657)  can0  11A   [8]  01 40 80 AA 80 00 03 D1
 (1742739616.757807)  can0  1D4   [8]  F7 07 00 00 07 46 70 5D
 (1742739616.758038)  can0  1F2   [8]  10 64 00 00 00 14 00 02
 (1742739616.758909)  can0  284   [8]  00 00 00 00 00 00 2F B5
 (1742739616.758981)  can0  1DA   [8]  C3 64 18 00 00 01 02 AE
 (1742739616.758983)  can0  50A   [6]  04 62 00 0D 00 A0
 (1742739616.763781)  can0  1DB   [8]  FF E0 C1 AA 00 00 01 8A
 (1742739616.763826)  can0  1DC   [8]  6E 03 2F FD 01 0C D5 80
 (1742739616.766637)  can0  11A   [8]  01 40 80 AA C0 00 00 1C
 (1742739616.768339)  can0  1D4   [8]  F7 07 00 00 47 46 70 9A
 (1742739616.768780)  can0  1F2   [8]  10 64 00 00 00 14 01 03
 (1742739616.768985)  can0  1DA   [8]  C3 64 18 00 00 01 03 2B
 (1742739616.770916)  can0  56E   [1]  46
 (1742739616.773484)  can0  1DB   [8]  FF E0 C1 AA 00 00 02 80
 (1742739616.773879)  can0  1DC   [8]  6E 03 2F FD 05 08 C6 5C
 (1742739616.777213)  can0  11A   [8]  01 40 80 55 00 00 01 0A
 (1742739616.777999)  can0  1D4   [8]  F7 07 00 00 87 46 70 56
 (1742739616.778357)  can0  1DA   [8]  C3 64 18 00 00 01 00 21
 (1742739616.779041)  can0  1F2   [8]  10 64 00 00 00 14 02 04
 (1742739616.780039)  can0  284   [8]  00 00 00 00 00 00 30 B6
 (1742739616.780103)  can0  50B   [6]  00 00 00 C0 00 60
 (1742739616.783533)  can0  1DB   [8]  FF C0 C1 AA 00 00 03 54
 (1742739616.783969)  can0  1DC   [8]  6E 03 2F FD 08 C0 C3 17
 (1742739616.787572)  can0  11A   [8]  01 40 80 55 40 00 02 C7
 (1742739616.788167)  can0  1DA   [8]  C3 64 18 00 00 01 01 A4
 (1742739616.788756)  can0  1D4   [8]  F7 07 00 00 C7 46 70 91
 (1742739616.788802)  can0  1F2   [8]  10 64 00 00 00 14 03 05
 (1742739616.794779)  can0  1DB   [8]  FF C0 C1 AA 00 00 00 5E
 (1742739616.794863)  can0  1DC   [8]  6E 03 2F FD 0C CC D8 5B
 (1742739616.797392)  can0  11A   [8]  01 40 80 AA 80 00 03 D1
 (1742739616.798151)  can0  1DA   [8]  C3 64 18 00 00 01 02 AE
 (1742739616.799295)  can0  55A   [8]  00 2D 2B 00 5F 2D 5B 48
 (1742739616.799345)  can0  1D4   [8]  F7 07 00 00 07 46 70 5D
 (1742739616.799387)  can0  1F2   [8]  10 64 00 00 00 14 00 02
 (1742739616.799390)  can0  284   [8]  00 00 00 00 00 00 31 B7
 (1742739616.803773)  can0  1DB   [8]  FF A0 C1 AA 00 00 01 28
 (1742739616.804526)  can0  1DC   [8]  6E 03 2F FD 01 0C D5 80
 (1742739616.804581)  can0  55B   [8]  BD 00 AA 00 FF C0 12 56
 (1742739616.806494)  can0  11A   [8]  01 40 80 AA C0 00 00 1C
 (1742739616.808010)  can0  1DA   [8]  C3 64 18 00 00 01 03 2B
 (1742739616.808828)  can0  1D4   [8]  F7 07 00 00 47 46 70 9A
 (1742739616.809527)  can0  1F2   [8]  10 64 00 00 00 14 01 03
 (1742739616.809667)  can0  284   [8]  00 00 00 00 00 00 32 B8
 (1742739616.813870)  can0  1DB   [8]  FF 80 C1 AA 00 00 02 73
 (1742739616.814014)  can0  1DC   [8]  6E 03 2F FD 05 08 C6 5C
 (1742739616.817289)  can0  11A   [8]  01 40 80 55 00 00 01 0A
 (1742739616.818011)  can0  1DA   [8]  C3 64 18 00 00 01 00 21
 (1742739616.818892)  can0  1D4   [8]  F7 07 00 00 87 46 70 56
 (1742739616.819339)  can0  1F2   [8]  10 64 00 00 00 14 02 04
 (1742739616.821316)  can0  54A   [8]  A0 00 70 02 00 00 00 30
 (1742739616.822209)  can0  54B   [8]  01 08 80 12 04 00 00 00
 (1742739616.823209)  can0  54C   [8]  65 66 00 00 00 00 60 00
 (1742739616.823845)  can0  1DB   [8]  FF A0 C1 AA 00 00 03 A7
 (1742739616.823918)  can0  1DC   [8]  6E 03 2F FD 08 C0 C3 17
 (1742739616.824262)  can0  54F   [8]  21 01 00 00 07 40 8A 21
 (1742739616.827154)  can0  11A   [8]  01 40 80 55 40 00 02 C7
 (1742739616.828024)  can0  1DA   [8]  C3 64 18 00 00 01 01 A4
 (1742739616.829364)  can0  1D4   [8]  F7 07 00 00 C7 46 70 91
 (1742739616.830179)  can0  1F2   [8]  10 64 00 00 00 14 03 05
 (1742739616.830238)  can0  284   [8]  00 00 00 00 00 00 33 B9
 (1742739616.833475)  can0  380   [8]  02 04 10 21 00 00 00 05
 (1742739616.833759)  can0  5BF   [8]  00 00 00 00 20 00 00 23
 (1742739616.833904)  can0  1DB   [8]  FF A0 C1 AA 00 00 00 AD
 (1742739616.834251)  can0  1DC   [8]  6E 03 2F FD 0C CC D8 5B
 (1742739616.837561)  can0  11A   [8]  01 40 80 AA 80 00 03 D1
 (1742739616.838049)  can0  1DA   [8]  C3 64 18 00 00 01 02 AE
 (1742739616.839450)  can0  1D4   [8]  F7 07 00 00 07 46 70 5D
 (1742739616.840074)  can0  1F2   [8]  10 64 00 00 00 14 00 02
 (1742739616.840183)  can0  50C   [6]  00 00 00 00 5D C8
 (1742739616.843966)  can0  1DB   [8]  FF A0 C1 AA 00 00 01 28
 (1742739616.844122)  can0  1DC   [8]  6E 03 2F FD 01 0C D5 80
 (1742739616.846580)  can0  11A   [8]  01 40 80 AA C0 00 00 1C
 (1742739616.848123)  can0  1DA   [8]  C3 64 18 00 00 01 03 2B
 (1742739616.849780)  can0  1D4   [8]  F7 07 00 00 47 46 70 9A
 (1742739616.850604)  can0  1F2   [8]  10 64 00 00 00 14 01 03
 (1742739616.850665)  can0  284   [8]  00 00 00 00 00 00 34 BA
 (1742739616.853597)  can0  1DB   [8]  FF A0 C1 AA 00 00 02 22
 (1742739616.854137)  can0  1DC   [8]  6E 03 2F FD 05 08 C6 5C
 (1742739616.857355)  can0  11A   [8]  01 40 80 55 00 00 01 0A
 (1742739616.858137)  can0  1DA   [8]  C3 64 18 00 00 01 00 21
 (1742739616.860028)  can0  1D4   [8]  F7 07 00 00 87 46 70 56
 (1742739616.860906)  can0  1F2   [8]  10 64 00 00 00 14 02 04
 (1742739616.860964)  can0  50A   [6]  04 02 00 0D 00 A0
 (1742739616.864002)  can0  1DB   [8]  FF A0 C1 AA 00 00 03 A7
 (1742739616.864072)  can0  1DC   [8]  6E 03 2F FD 08 C0 C3 17
 (1742739616.867020)  can0  11A   [8]  01 40 80 55 40 00 02 C7
 (1742739616.868138)  can0  1DA   [8]  C3 64 18 00 00 01 01 A4
 (1742739616.870312)  can0  1D4   [8]  F7 07 00 00 C7 46 70 91
 (1742739616.870871)  can0  1F2   [8]  10 64 00 00 00 14 03 05
 (1742739616.871515)  can0  284   [8]  00 00 00 00 00 00 35 BB
 (1742739616.872984)  can0  56E   [1]  46
 (1742739616.873955)  can0  1DB   [8]  FF A0 C1 AA 00 00 00 AD
 (1742739616.874005)  can0  1DC   [8]  6E 03 2F FD 0C CC D8 5B
 (1742739616.877214)  can0  11A   [8]  01 40 80 AA 80 00 03 D1
 (1742739616.878015)  can0  1DA   [8]  C3 64 18 00 00 01 02 AE
 (1742739616.880512)  can0  1D4   [8]  F7 07 00 00 07 46 70 5D
 (1742739616.881010)  can0  1F2   [8]  10 64 00 00 00 14 00 02
 (1742739616.881544)  can0  50B   [6]  00 00 00 C0 00 60
 (1742739616.883684)  can0  1DB   [8]  FF A0 C1 AA 00 00 01 28
 (1742739616.884258)  can0  1DC   [8]  6E 03 2F FD 01 0C D5 80
 (1742739616.886597)  can0  11A   [8]  01 40 80 AA C0 00 00 1C
 (1742739616.888121)  can0  1DA   [8]  C3 64 18 00 00 01 03 2B
 (1742739616.890740)  can0  1D4   [8]  F7 07 00 00 47 46 70 9A
 (1742739616.891207)  can0  1F2   [8]  10 64 00 00 00 14 01 03
 (1742739616.891751)  can0  284   [8]  00 00 00 00 00 00 36 BC
 (1742739616.893863)  can0  1DB   [8]  FF A0 C1 AA 00 00 02 22
 (1742739616.894007)  can0  1DC   [8]  6E 03 2F FD 05 08 C6 5C
 (1742739616.897329)  can0  11A   [8]  01 40 80 55 00 00 01 0A
 (1742739616.898114)  can0  1DA   [8]  C3 64 18 00 00 01 00 21
 (1742739616.898604)  can0  55A   [8]  00 2D 2B 00 5F 2D 5B 48
 (1742739616.900935)  can0  1D4   [8]  F7 07 00 00 87 46 70 56
 (1742739616.901277)  can0  1F2   [8]  10 64 00 00 00 14 02 04
 (1742739616.903631)  can0  1DB   [8]  FF C0 C1 AA 00 00 03 54
 (1742739616.903925)  can0  1DC   [8]  6E 03 2F FD 08 C0 C3 17
 (1742739616.904237)  can0  55B   [8]  BD 00 55 00 FF C0 13 94
 (1742739616.906873)  can0  11A   [8]  01 40 80 55 40 00 02 C7
 (1742739616.907864)  can0  1DA   [8]  C3 64 18 00 00 01 01 A4
 (1742739616.911001)  can0  1D4   [8]  F7 07 00 00 C7 46 70 91
 (1742739616.911370)  can0  1F2   [8]  10 64 00 00 00 14 03 05
 (1742739616.911631)  can0  284   [8]  00 00 00 00 00 00 37 BD
 (1742739616.913371)  can0  1DB   [8]  FF C0 C1 AA 00 00 00 5E
 (1742739616.913647)  can0  1DC   [8]  6E 03 2F FD 0C CC D8 5B
 (1742739616.917464)  can0  11A   [8]  01 40 80 AA 80 00 03 D1
 (1742739616.918182)  can0  1DA   [8]  C3 64 18 00 00 01 02 AE
 (1742739616.921429)  can0  1D4   [8]  F7 07 00 00 07 46 70 5D
 (1742739616.922280)  can0  1F2   [8]  10 64 00 00 00 14 00 02
 (1742739616.922872)  can0  54A   [8]  12 00 70 02 00 00 00 30
 (1742739616.923714)  can0  54B   [8]  01 08 80 12 04 00 00 00
 (1742739616.923772)  can0  1DB   [8]  FF C0 C1 AA 00 00 01 DB
 (1742739616.924155)  can0  1DC   [8]  6E 03 2F FD 01 0C D5 80
 (1742739616.924709)  can0  54C   [8]  65 66 00 00 00 00 60 00
 (1742739616.925390)  can0  54F   [8]  22 01 00 00 07 80 8A 21
 (1742739616.926546)  can0  11A   [8]  01 40 80 AA C0 00 00 1C
 (1742739616.928106)  can0  1DA   [8]  C3 64 18 00 00 01 03 2B
 (1742739616.931644)  can0  1D4   [8]  F7 07 00 00 47 46 70 9A
 (1742739616.932102)  can0  1F2   [8]  10 64 00 00 00 14 01 03
 (1742739616.932135)  can0  284   [8]  00 00 00 00 00 00 38 BE
 (1742739616.933165)  can0  380   [8]  02 04 10 21 00 00 00 16
 (1742739616.933487)  can0  1DB   [8]  FF C0 C1 AA 00 00 02 D1
 (1742739616.933734)  can0  1DC   [8]  6E 03 2F FD 05 08 C6 5C
 (1742739616.933988)  can0  5BF   [8]  00 00 00 00 20 00 00 34
 (1742739616.937391)  can0  11A   [8]  01 40 80 55 00 00 01 0A
 (1742739616.937907)  can0  1DA   [8]  C3 64 18 00 00 01 00 21
 (1742739616.942370)  can0  1D4   [8]  F7 07 00 00 87 46 70 56
 (1742739616.942441)  can0  1F2   [8]  10 64 00 00 00 14 02 04
 (1742739616.942857)  can0  50C   [6]  00 00 00 01 B2 31
 (1742739616.943597)  can0  1DB   [8]  FF C0 C1 AA 00 00 03 54
 (1742739616.944180)  can0  1DC   [8]  6E 03 2F FD 08 C0 C3 17
 (1742739616.947008)  can0  11A   [8]  01 40 80 55 40 00 02 C7
 (1742739616.948129)  can0  1DA   [8]  C3 64 18 00 00 01 01 A4
 (1742739616.952539)  can0  1D4   [8]  F7 07 00 00 C7 46 70 91
 (1742739616.952889)  can0  1F2   [8]  10 64 00 00 00 14 03 05
 (1742739616.953135)  can0  284   [8]  00 00 00 00 00 00 39 BF
 (1742739616.953700)  can0  1DB   [8]  FF C0 C1 AA 00 00 00 5E
 (1742739616.954191)  can0  1DC   [8]  6E 03 2F FD 0C CC D8 5B
 (1742739616.957297)  can0  11A   [8]  01 40 80 AA 80 00 03 D1
 (1742739616.958104)  can0  1DA   [8]  C3 64 18 00 00 01 02 AE
 (1742739616.964312)  can0  1D4   [8]  F7 07 00 00 07 46 70 5D
 (1742739616.964370)  can0  1F2   [8]  10 64 00 00 00 14 00 02
 (1742739616.964372)  can0  50A   [6]  04 22 00 0D 00 A0
 (1742739616.964374)  can0  1DB   [8]  FF C0 C1 AA 00 00 01 DB
 (1742739616.964375)  can0  1DC   [8]  6E 03 2F FD 01 0C D5 80
 (1742739616.966456)  can0  11A   [8]  01 40 80 AA C0 00 00 1C
 (1742739616.968057)  can0  1DA   [8]  C3 64 18 00 00 01 03 2B
 (1742739616.972735)  can0  1D4   [8]  F7 07 00 00 47 46 70 9A
 (1742739616.973478)  can0  1F2   [8]  10 64 00 00 00 14 01 03
 (1742739616.973548)  can0  284   [8]  00 00 00 00 00 00 3A C0
 (1742739616.974213)  can0  1DB   [8]  FF C0 C1 AA 00 00 02 D1
 (1742739616.974270)  can0  1DC   [8]  6E 03 2F FD 05 08 C6 5C
 (1742739616.975022)  can0  56E   [1]  46
 (1742739616.977217)  can0  11A   [8]  01 40 80 55 00 00 01 0A
 (1742739616.977967)  can0  1DA   [8]  C3 64 18 00 00 01 00 21
 (1742739616.983131)  can0  1D4   [8]  F7 07 00 00 87 46 70 56
 (1742739616.983185)  can0  1F2   [8]  10 64 00 00 00 14 02 04
 (1742739616.983572)  can0  50B   [6]  00 00 00 C0 00 60
 (1742739616.983624)  can0  1DB   [8]  FF C0 C1 AA 00 00 03 54
 (1742739616.983878)  can0  1DC   [8]  6E 03 2F FD 08 C0 C3 17
 (1742739616.986955)  can0  11A   [8]  01 40 80 55 40 00 02 C7
 (1742739616.987975)  can0  1DA   [8]  C3 64 18 00 00 01 01 A4
 (1742739616.993225)  can0  1D4   [8]  F7 07 00 00 C7 46 70 91
 (1742739616.993967)  can0  1F2   [8]  10 64 00 00 00 14 03 05
 (1742739616.994571)  can0  1DB   [8]  FF C0 C1 AA 00 00 00 5E
 (1742739616.994961)  can0  1DC   [8]  6E 03 2F FD 0C CC D8 5B
 (1742739616.995020)  can0  284   [8]  00 00 00 00 00 00 3B C1
 (1742739616.997331)  can0  11A   [8]  01 40 80 AA 80 00 03 D1
 (1742739616.998082)  can0  1DA   [8]  C3 64 18 00 00 01 02 AE
 (1742739616.998549)  can0  55A   [8]  00 2D 2B 00 5F 2D 5B 48
 (1742739617.004957)  can0  1D4   [8]  F7 07 00 00 07 46 70 5D
 (1742739617.005784)  can0  1F2   [8]  10 64 00 00 00 14 00 02
 (1742739617.005850)  can0  1DB   [8]  FF C0 C1 AA 00 00 01 DB
 (1742739617.005852)  can0  1DC   [8]  6E 03 2F FD 01 0C D5 80
 (1742739617.005854)  can0  55B   [8]  BD 00 55 00 FF C0 10 9E
 (1742739617.006598)  can0  11A   [8]  01 40 80 AA C0 00 00 1C
 (1742739617.008079)  can0  1DA   [8]  C3 64 18 00 00 01 03 2B
 (1742739617.014740)  can0  1DB   [8]  FF A0 C1 AA 00 00 02 22
 (1742739617.014808)  can0  1D4   [8]  F7 07 00 00 47 46 70 9A
 (1742739617.014810)  can0  1DC   [8]  6E 03 2F FD 05 08 C6 5C
 (1742739617.014811)  can0  1F2   [8]  10 64 00 00 00 14 01 03
 (1742739617.014813)  can0  284   [8]  00 00 00 00 00 00 3C C2
 (1742739617.017284)  can0  11A   [8]  01 40 80 55 00 00 01 0A
 (1742739617.018051)  can0  1DA   [8]  C3 64 18 00 00 01 00 21
 (1742739617.021441)  can0  54A   [8]  A0 00 70 02 00 00 00 30
 (1742739617.022341)  can0  54B   [8]  01 08 80 12 04 00 00 00
 (1742739617.023359)  can0  54C   [8]  65 66 00 00 00 00 60 00
 (1742739617.023937)  can0  1DB   [8]  FF A0 C1 AA 00 00 03 A7
 (1742739617.023984)  can0  1D4   [8]  F7 07 00 00 87 46 70 56
 (1742739617.024708)  can0  1DC   [8]  6E 03 2F FD 08 C0 C3 17
 (1742739617.024778)  can0  1F2   [8]  10 64 00 00 00 14 02 04
 (1742739617.024780)  can0  54F   [8]  22 01 00 00 07 C0 8A 21
 (1742739617.026869)  can0  11A   [8]  01 40 80 55 40 00 02 C7
 (1742739617.027977)  can0  1DA   [8]  C3 64 18 00 00 01 01 A4
 (1742739617.033454)  can0  380   [8]  02 04 10 21 00 00 00 27
 (1742739617.033781)  can0  1DB   [8]  FF A0 C1 AA 00 00 00 AD
 (1742739617.034281)  can0  1DC   [8]  6E 03 2F FD 0C CC D8 5B
 (1742739617.034339)  can0  1D4   [8]  F7 07 00 00 C7 46 70 91
 (1742739617.034765)  can0  1F2   [8]  10 64 00 00 00 14 03 05
 (1742739617.034849)  can0  284   [8]  00 00 00 00 00 00 3D C3
 (1742739617.035195)  can0  5BF   [8]  00 00 00 00 20 00 00 01
 (1742739617.037163)  can0  11A   [8]  01 40 80 AA 80 00 03 D1
 (1742739617.037964)  can0  1DA   [8]  C3 64 18 00 00 01 02 AE
 (1742739617.044511)  can0  1DB   [8]  FF A0 C1 AA 00 00 01 28
 (1742739617.045126)  can0  1DC   [8]  6E 03 2F FD 01 0C D5 80
 (1742739617.045207)  can0  1D4   [8]  F7 07 00 00 07 46 70 5D
 (1742739617.045209)  can0  1F2   [8]  10 64 00 00 00 14 00 02
 (1742739617.045210)  can0  50C   [6]  00 00 00 02 B2 0D
 (1742739617.046425)  can0  11A   [8]  01 40 80 AA C0 00 00 1C
 (1742739617.047984)  can0  1DA   [8]  C3 64 18 00 00 01 03 2B
 (1742739617.053903)  can0  1DB   [8]  FF C0 C1 AA 00 00 02 D1
 (1742739617.053972)  can0  1DC   [8]  6E 03 2F FD 05 08 C6 5C
 (1742739617.054646)  can0  1D4   [8]  F7 07 00 00 47 46 70 9A
 (1742739617.055466)  can0  1F2   [8]  10 64 00 00 00 14 01 03
 (1742739617.055511)  can0  284   [8]  00 00 00 00 00 00 3E C4
 (1742739617.057277)  can0  11A   [8]  01 40 80 55 00 00 01 0A
 (1742739617.058069)  can0  1DA   [8]  C3 64 18 00 00 01 00 21
 (1742739617.063503)  can0  1DB   [8]  FF C0 C1 AA 00 00 03 54
 (1742739617.063849)  can0  1DC   [8]  6E 03 2F FD 08 C0 C3 17
 (1742739617.064946)  can0  1D4   [8]  F7 07 00 00 87 46 70 56
 (1742739617.065450)  can0  1F2   [8]  10 64 00 00 00 14 02 04
 (1742739617.065796)  can0  50A   [6]  04 42 00 0D 80 A0
 (1742739617.066901)  can0  11A   [8]  01 40 80 55 40 00 02 C7
 (1742739617.068084)  can0  1DA   [8]  C3 64 18 00 00 01 01 A4
 (1742739617.074048)  can0  1DB   [8]  FF C0 C1 AA 00 00 00 5E
 (1742739617.074118)  can0  1DC   [8]  6E 03 2F FD 0C CC D8 5B
 (1742739617.075206)  can0  1D4   [8]  F7 07 00 00 C7 46 70 91
 (1742739617.075622)  can0  1F2   [8]  10 64 00 00 00 14 03 05
 (1742739617.076078)  can0  284   [8]  00 00 00 00 00 00 3F C5
 (1742739617.076887)  can0  56E   [1]  46
 (1742739617.077296)  can0  11A   [8]  01 40 80 AA 80 00 03 D1
 (1742739617.077960)  can0  1DA   [8]  C3 64 18 00 00 01 02 AE
 (1742739617.083593)  can0  1DB   [8]  FF C0 C1 AA 00 00 01 DB
 (1742739617.084091)  can0  1DC   [8]  6E 03 2F FD 01 0C D5 80
 (1742739617.085401)  can0  1D4   [8]  F7 07 00 00 07 46 70 5D
 (1742739617.086156)  can0  1F2   [8]  10 64 00 00 00 14 00 02
 (1742739617.086213)  can0  50B   [6]  00 00 00 C0 00 60
 (1742739617.086692)  can0  11A   [8]  01 40 80 AA C0 00 00 1C
 (1742739617.088116)  can0  1DA   [8]  C3 64 18 00 00 01 03 2B
 (1742739617.093913)  can0  1DB   [8]  FF A0 C1 AA 00 00 02 22
 (1742739617.093965)  can0  1DC   [8]  6E 03 2F FD 05 08 C6 5C
 (1742739617.094338)  can0  380   [8]  02 04 10 21 00 00 00 B0
 (1742739617.095615)  can0  1D4   [8]  F7 07 00 00 47 46 70 9A
 (1742739617.096241)  can0  1F2   [8]  10 64 00 00 00 14 01 03
 (1742739617.096310)  can0  284   [8]  00 00 00 00 00 00 40 C6
 (1742739617.097166)  can0  11A   [8]  01 40 80 55 00 00 01 0A
 (1742739617.097994)  can0  1DA   [8]  C3 64 18 00 00 01 00 21
 (1742739617.098335)  can0  55A   [8]  00 2D 2B 00 5F 2D 5B 48
 (1742739617.103676)  can0  1DB   [8]  FF A0 C1 AA 00 00 03 A7
 (1742739617.103995)  can0  1DC   [8]  6E 03 2F FD 08 C0 C3 17
 (1742739617.104377)  can0  55B   [8]  BD 00 55 00 FF C0 11 1B
 (1742739617.105859)  can0  1D4   [8]  F7 07 00 00 87 46 70 56
 (1742739617.106187)  can0  1F2   [8]  10 64 00 00 00 18 02 08
 (1742739617.106873)  can0  11A   [8]  01 40 80 55 40 00 02 C7
 (1742739617.108009)  can0  1DA   [8]  C3 64 18 00 00 01 01 A4
 (1742739617.113489)  can0  1DB   [8]  FF A0 C1 AA 00 00 00 AD
 (1742739617.113800)  can0  1DC   [8]  6E 03 2F FD 0C CC D8 5B
 (1742739617.115981)  can0  1D4   [8]  F7 07 00 00 C7 46 30 17
 (1742739617.116566)  can0  1F2   [8]  10 64 00 00 00 1E 03 0F
 (1742739617.116647)  can0  284   [8]  00 00 00 00 00 00 41 C7
 (1742739617.117178)  can0  11A   [8]  01 40 80 AA 80 00 03 D1
 (1742739617.118098)  can0  1DA   [8]  C3 64 18 00 00 01 02 AE
 (1742739617.121482)  can0  54A   [8]  12 00 70 02 00 00 00 30
 (1742739617.122329)  can0  54B   [8]  01 08 80 12 04 00 00 00
 (1742739617.123290)  can0  54C   [8]  65 66 00 00 00 00 60 00
 (1742739617.123587)  can0  1DB   [8]  FF A0 C1 AA 00 00 01 28
 (1742739617.123831)  can0  1DC   [8]  6E 03 2F FD 01 0C D5 80
 (1742739617.124283)  can0  54F   [8]  22 01 00 00 07 00 8A 21
 (1742739617.126121)  can0  1D4   [8]  F7 07 00 00 07 46 30 DB
 (1742739617.126367)  can0  11A   [8]  01 40 80 AA C0 00 00 1C
 (1742739617.126656)  can0  1F2   [8]  10 64 00 00 00 1E 00 0C
 (1742739617.127860)  can0  1DA   [8]  C3 64 18 00 00 01 03 2B
 (1742739617.133702)  can0  1DB   [8]  FF C0 C1 AA 00 00 02 D1
 (1742739617.133746)  can0  1DC   [8]  6E 03 2F FD 05 08 C6 5C
 (1742739617.133982)  can0  380   [8]  02 04 10 21 00 00 00 8D
 (1742739617.134359)  can0  5BF   [8]  00 00 00 00 28 00 00 1A
 (1742739617.136797)  can0  1D4   [8]  F7 07 00 00 47 46 30 1C
 (1742739617.136844)  can0  1F2   [8]  10 64 00 00 00 1E 01 0D
 (1742739617.137060)  can0  284   [8]  00 00 00 00 00 00 42 C8
 (1742739617.137490)  can0  11A   [8]  01 40 80 55 00 00 01 0A
 (1742739617.138035)  can0  1DA   [8]  C3 64 18 00 00 01 00 21
 (1742739617.144044)  can0  1DB   [8]  FF C0 C1 AA 00 00 03 54
 (1742739617.144120)  can0  1DC   [8]  6E 03 2F FD 08 C0 C3 17
 (1742739617.146944)  can0  1D4   [8]  F7 07 00 00 87 46 30 D0
 (1742739617.147664)  can0  11A   [8]  01 40 80 55 40 00 02 C7
 (1742739617.147723)  can0  1F2   [8]  10 64 00 00 00 1E 02 0E
 (1742739617.148467)  can0  284   [8]  00 00 00 00 00 00 43 C9
 (1742739617.148534)  can0  50C   [6]  00 00 00 03 B2 9A
 (1742739617.148537)  can0  1DA   [8]  C3 64 18 00 00 01 01 A4
 (1742739617.153823)  can0  1DB   [8]  FF A0 C1 AA 00 00 00 AD
 (1742739617.153924)  can0  1DC   [8]  6E 03 2F FD 0C CC D8 5B
 (1742739617.157067)  can0  1D4   [8]  F7 07 00 00 C7 46 30 17
 (1742739617.158283)  can0  11A   [8]  01 40 80 AA 80 00 03 D1
 (1742739617.158369)  can0  1F2   [8]  10 64 00 00 00 1E 03 0F
 (1742739617.158372)  can0  5A9   [8]  86 1E F0 0E C3 60 00 00
 (1742739617.158374)  can0  1DA   [8]  C3 64 18 00 00 01 02 AE
 (1742739617.164298)  can0  1DB   [8]  FF A0 C1 AA 00 00 01 28
 (1742739617.164433)  can0  1DC   [8]  6E 03 2F FD 01 0C D5 80
 (1742739617.166988)  can0  11A   [8]  01 40 80 AA C0 00 00 1C
 (1742739617.171001)  can0  1D4   [8]  F7 07 00 00 07 46 30 DB
 (1742739617.171123)  can0  1F2   [8]  10 64 00 00 00 1E 00 0C
 (1742739617.171128)  can0  284   [8]  00 00 00 00 00 00 44 CA
 (1742739617.171129)  can0  50A   [6]  85 62 A0 0D 80 A0
 (1742739617.171130)  can0  1DA   [8]  C3 64 18 00 00 01 03 2B
 (1742739617.173902)  can0  1DB   [8]  FF A0 C1 AA 00 00 02 22
 (1742739617.173955)  can0  1DC   [8]  6E 03 2F FD 05 08 C6 5C
 (1742739617.178139)  can0  11A   [8]  01 40 80 55 00 00 01 0A
 (1742739617.178201)  can0  1D4   [8]  F7 07 00 00 47 46 30 1C
 (1742739617.178203)  can0  1F2   [8]  10 64 00 00 00 1E 01 0D
 (1742739617.178204)  can0  1DA   [8]  C3 64 18 00 00 01 00 21
 (1742739617.178804)  can0  56E   [1]  46
 (1742739617.183776)  can0  1DB   [8]  FF A0 C1 AA 00 00 03 A7
 (1742739617.183900)  can0  1DC   [8]  6E 03 2F FD 08 C0 C3 17
 (1742739617.186905)  can0  11A   [8]  01 40 80 55 40 00 02 C7
 (1742739617.187721)  can0  1D4   [8]  F7 07 00 00 87 46 30 D0
 (1742739617.188089)  can0  1F2   [8]  10 64 00 00 00 1E 02 0E
 (1742739617.188604)  can0  1DA   [8]  C3 64 18 00 00 01 01 A4
 (1742739617.188646)  can0  284   [8]  00 00 00 00 00 00 45 CB
 (1742739617.188991)  can0  50B   [6]  00 00 02 C0 00 60
 (1742739617.193479)  can0  1DB   [8]  FF C0 C1 AA 00 00 00 5E
 (1742739617.193797)  can0  1DC   [8]  6E 03 2F FD 0C CC D8 5B
 (1742739617.197197)  can0  11A   [8]  01 40 80 AA 80 00 03 D1
 (1742739617.197905)  can0  1D4   [8]  F7 07 00 00 C7 46 30 17
 (1742739617.198717)  can0  1DA   [8]  C3 64 18 00 00 01 02 AE
 (1742739617.198766)  can0  1F2   [8]  10 64 00 00 00 1E 03 0F
 (1742739617.198853)  can0  55A   [8]  00 2D 2B 00 5F 2D 5B 48
 (1742739617.203627)  can0  1DB   [8]  FF C0 C1 AA 00 00 01 DB
 (1742739617.204207)  can0  1DC   [8]  6E 03 2F FD 01 0C D5 80
 (1742739617.204262)  can0  55B   [8]  BD 00 55 00 FF C0 12 11
 (1742739617.206519)  can0  11A   [8]  01 40 80 AA C0 00 00 1C
 (1742739617.207939)  can0  1DA   [8]  C3 64 18 00 00 01 03 2B
 (1742739617.208557)  can0  1D4   [8]  F7 07 00 00 07 46 30 DB
 (1742739617.208597)  can0  1F2   [8]  10 64 00 00 00 1E 00 0C
 (1742739617.208929)  can0  284   [8]  00 00 00 00 00 00 46 CC
 (1742739617.214099)  can0  1DB   [8]  FF C0 C1 AA 00 00 02 D1
 (1742739617.214275)  can0  1DC   [8]  6E 03 2F FD 05 08 C6 5C
 (1742739617.214606)  can0  5BC   [8]  34 C3 2A 28 C0 06 21 2C
 (1742739617.214684)  can0  5C0   [8]  C0 50 50 00 C8 D4 00 00
 (1742739617.218364)  can0  11A   [8]  01 40 80 55 00 00 01 0A
 (1742739617.218717)  can0  1DA   [8]  C3 64 18 00 00 01 00 21
 (1742739617.218911)  can0  1D4   [8]  F7 07 00 00 47 46 30 1C
 (1742739617.218956)  can0  1F2   [8]  10 64 00 00 00 1E 01 0D
 (1742739617.221521)  can0  54A   [8]  A0 00 70 02 00 00 00 30
 (1742739617.222633)  can0  54B   [8]  01 08 80 12 04 00 00 00
 (1742739617.223547)  can0  1DB   [8]  FF C0 C1 AA 00 00 03 54
 (1742739617.224239)  can0  1DC   [8]  6E 03 2F FD 08 C0 C3 17
 (1742739617.224313)  can0  54C   [8]  65 66 00 00 00 00 60 00
 (1742739617.224634)  can0  54F   [8]  22 01 00 00 07 40 8A 21
 (1742739617.226960)  can0  11A   [8]  01 40 80 55 40 00 02 C7
 (1742739617.227944)  can0  1DA   [8]  C3 64 18 00 00 01 01 A4
 (1742739617.228753)  can0  1D4   [8]  F7 07 00 00 87 46 30 D0
 (1742739617.229137)  can0  1F2   [8]  10 64 00 00 00 1E 02 0E
 (1742739617.229657)  can0  284   [8]  00 00 00 00 00 00 47 CD
 (1742739617.229699)  can0  5B9   [5]  00 96 61 2C 28
 (1742739617.233450)  can0  1DB   [8]  FF C0 C1 AA 00 00 00 5E
 (1742739617.233777)  can0  1DC   [8]  6E 03 2F FD 0C CC D8 5B
 (1742739617.234366)  can0  380   [8]  02 04 10 21 00 00 00 9E
 (1742739617.234411)  can0  5BF   [8]  00 00 00 00 28 00 00 2B
 (1742739617.237258)  can0  11A   [8]  01 40 80 AA 80 00 03 D1
 (1742739617.237915)  can0  1DA   [8]  C3 64 18 00 00 01 02 AE
 (1742739617.238947)  can0  1D4   [8]  F7 07 00 00 C7 46 30 17
 (1742739617.239358)  can0  1F2   [8]  10 64 00 00 00 1E 03 0F
 (1742739617.243475)  can0  1DB   [8]  FF C0 C1 AA 00 00 01 DB
 (1742739617.243824)  can0  1DC   [8]  6E 03 2F FD 01 0C D5 80
 (1742739617.246452)  can0  11A   [8]  01 40 80 AA C0 00 00 1C
 (1742739617.247989)  can0  1DA   [8]  C3 64 18 00 00 01 03 2B
 (1742739617.249204)  can0  1D4   [8]  F7 07 00 00 07 46 30 DB
 (1742739617.249528)  can0  1F2   [8]  10 64 00 00 00 1E 00 0C
 (1742739617.250055)  can0  284   [8]  00 00 00 00 00 00 48 CE
 (1742739617.250098)  can0  50C   [6]  00 00 00 00 B2 A6
 (1742739617.253431)  can0  1DB   [8]  FF A0 C1 AA 00 00 02 22
 (1742739617.253845)  can0  1DC   [8]  6E 03 2F FD 05 08 C6 5C
 (1742739617.257150)  can0  11A   [8]  01 40 80 55 00 00 01 0A
 (1742739617.257963)  can0  1DA   [8]  C3 64 18 00 00 01 00 21
 (1742739617.259498)  can0  1D4   [8]  F7 07 00 00 47 46 30 1C
 (1742739617.259932)  can0  1F2   [8]  10 64 00 00 00 1E 01 0D
 (1742739617.263757)  can0  1DB   [8]  FF A0 C1 AA 00 00 03 A7
 (1742739617.263810)  can0  1DC   [8]  6E 03 2F FD 08 C0 C3 17
 (1742739617.266968)  can0  11A   [8]  01 40 80 55 40 00 02 C7
 (1742739617.267965)  can0  1DA   [8]  C3 64 18 00 00 01 01 A4
 (1742739617.269936)  can0  1D4   [8]  F7 07 00 00 87 46 30 D0
 (1742739617.270572)  can0  1F2   [8]  10 64 00 00 00 1E 02 0E
 (1742739617.271581)  can0  284   [8]  00 00 00 00 00 00 49 CF
 (1742739617.271652)  can0  50A   [6]  85 02 A0 0D 80 A0
 (1742739617.273523)  can0  1DB   [8]  FF A0 C1 AA 00 00 00 AD
 (1742739617.273912)  can0  1DC   [8]  6E 03 2F FD 0C CC D8 5B
 (1742739617.277286)  can0  11A   [8]  01 40 80 AA 80 00 03 D1
 (1742739617.278003)  can0  1DA   [8]  C3 64 18 00 00 01 02 AE
 (1742739617.279928)  can0  1D4   [8]  F7 07 00 00 C7 46 30 17
 (1742739617.280291)  can0  1F2   [8]  10 64 00 00 00 1E 03 0F
 (1742739617.280792)  can0  56E   [1]  46
 (1742739617.283525)  can0  1DB   [8]  FF A0 C1 AA 00 00 01 28
 (1742739617.284057)  can0  1DC   [8]  6E 03 2F FD 01 0C D5 80
 (1742739617.286495)  can0  11A   [8]  01 40 80 AA C0 00 00 1C
 (1742739617.288046)  can0  1DA   [8]  C3 64 18 00 00 01 03 2B
 (1742739617.290291)  can0  1D4   [8]  F7 07 00 00 07 46 30 DB
 (1742739617.291151)  can0  1F2   [8]  10 64 00 00 00 1E 00 0C
 (1742739617.291245)  can0  284   [8]  00 00 00 00 00 00 4A D0
 (1742739617.291255)  can0  50B   [6]  00 00 02 C0 00 60
 (1742739617.293595)  can0  1DB   [8]  FF A0 C1 AA 00 00 02 22
 (1742739617.293968)  can0  1DC   [8]  6E 03 2F FD 05 08 C6 5C
 (1742739617.297215)  can0  11A   [8]  01 40 80 55 00 00 01 0A
 (1742739617.297943)  can0  1DA   [8]  C3 64 18 00 00 01 00 21
 (1742739617.298574)  can0  55A   [8]  00 2D 2B 00 5F 2D 5B 48
 (1742739617.300475)  can0  1D4   [8]  F7 07 00 00 47 46 30 1C
 (1742739617.300979)  can0  1F2   [8]  10 64 00 00 00 1E 01 0D
 (1742739617.303723)  can0  1DB   [8]  FF A0 C1 AA 00 00 03 A7
 (1742739617.304572)  can0  1DC   [8]  6E 03 2F FD 08 C0 C3 17
 (1742739617.304665)  can0  55B   [8]  BD 00 55 00 FF C0 13 94
 (1742739617.306983)  can0  11A   [8]  01 40 80 55 40 00 02 C7
 (1742739617.308075)  can0  1DA   [8]  C3 64 18 00 00 01 01 A4
 (1742739617.310627)  can0  1D4   [8]  F7 07 00 00 87 46 30 D0
 (1742739617.312196)  can0  1F2   [8]  10 64 00 00 00 1E 02 0E
 (1742739617.312244)  can0  284   [8]  00 00 00 00 00 00 4B D1
 (1742739617.313790)  can0  1DB   [8]  FF A0 C1 AA 00 00 00 AD
 (1742739617.313872)  can0  1DC   [8]  6E 03 2F FD 0C CC D8 5B
 (1742739617.317381)  can0  11A   [8]  01 40 80 AA 80 00 03 D1
 (1742739617.317925)  can0  1DA   [8]  C3 64 18 00 00 01 02 AE
 (1742739617.320745)  can0  1D4   [8]  F7 07 00 00 C7 46 30 17
 (1742739617.321047)  can0  1F2   [8]  10 64 00 00 00 1E 03 0F
 (1742739617.321445)  can0  54A   [8]  12 00 70 02 00 00 00 30
 (1742739617.322444)  can0  54B   [8]  01 08 80 12 04 00 00 00
 (1742739617.323309)  can0  1DB   [8]  FF A0 C1 AA 00 00 01 28
 (1742739617.323564)  can0  1DC   [8]  6E 03 2F FD 01 0C D5 80
 (1742739617.323841)  can0  54C   [8]  65 66 00 00 00 00 60 00
 (1742739617.324425)  can0  54F   [8]  22 01 00 00 07 80 8A 21
 (1742739617.326286)  can0  11A   [8]  01 40 80 AA C0 00 00 1C
 (1742739617.327784)  can0  1DA   [8]  C3 64 18 00 00 01 03 2B
 (1742739617.331110)  can0  1D4   [8]  F7 07 00 00 07 46 30 DB
 (1742739617.331375)  can0  1F2   [8]  10 64 00 00 00 1E 00 0C
 (1742739617.331615)  can0  284   [8]  00 00 00 00 00 00 4C D2
 (1742739617.333418)  can0  1DB   [8]  FF A0 C1 AA 00 00 02 22
 (1742739617.333773)  can0  1DC   [8]  6E 03 2F FD 05 08 C6 5C
 (1742739617.334184)  can0  380   [8]  02 04 10 21 00 00 00 AF
 (1742739617.334624)  can0  5BF   [8]  00 00 00 00 28 00 00 3C
 (1742739617.337294)  can0  11A   [8]  01 40 80 55 00 00 01 0A
 (1742739617.338011)  can0  1DA   [8]  C3 64 18 00 00 01 00 21
 (1742739617.341778)  can0  1D4   [8]  F7 07 00 00 47 46 30 1C
 (1742739617.341883)  can0  1F2   [8]  10 64 00 00 00 1E 01 0D
 (1742739617.343430)  can0  1DB   [8]  FF A0 C1 AA 00 00 03 A7
 (1742739617.343805)  can0  1DC   [8]  6E 03 2F FD 08 C0 C3 17
 (1742739617.346896)  can0  11A   [8]  01 40 80 55 40 00 02 C7
 (1742739617.347923)  can0  1DA   [8]  C3 64 18 00 00 01 01 A4
 (1742739617.351592)  can0  1D4   [8]  F7 07 00 00 87 46 30 D0
 (1742739617.352180)  can0  1F2   [8]  10 64 00 00 00 1E 02 0E
 (1742739617.352446)  can0  284   [8]  00 00 00 00 00 00 4D D3
 (1742739617.352481)  can0  50C   [6]  00 00 00 01 B2 31
 (1742739617.353433)  can0  1DB   [8]  FF A0 C1 AA 00 00 00 AD
 (1742739617.353768)  can0  1DC   [8]  6E 03 2F FD 0C CC D8 5B
 (1742739617.357271)  can0  11A   [8]  01 40 80 AA 80 00 03 D1
 (1742739617.357905)  can0  1DA   [8]  C3 64 18 00 00 01 02 AE
 (1742739617.361863)  can0  1D4   [8]  F7 07 00 00 C7 46 30 17
 (1742739617.362173)  can0  1F2   [8]  10 64 00 00 00 1E 03 0F
 (1742739617.363401)  can0  1DB   [8]  FF A0 C1 AA 00 00 01 28
 (1742739617.363753)  can0  1DC   [8]  6E 03 2F FD 01 0C D5 80
 (1742739617.366376)  can0  11A   [8]  01 40 80 AA C0 00 00 1C
 (1742739617.367954)  can0  1DA   [8]  C3 64 18 00 00 01 03 2B
 (1742739617.372179)  can0  1D4   [8]  F7 07 00 00 07 46 30 DB
 (1742739617.373267)  can0  1F2   [8]  10 64 00 00 00 1E 00 0C
 (1742739617.373742)  can0  284   [8]  00 00 00 00 00 00 4E D4
 (1742739617.373823)  can0  50A   [6]  85 22 A0 0D 80 A0
 (1742739617.374045)  can0  1DB   [8]  FF A0 C1 AA 00 00 02 22
 (1742739617.374049)  can0  1DC   [8]  6E 03 2F FD 05 08 C6 5C
 (1742739617.377291)  can0  11A   [8]  01 40 80 55 00 00 01 0A
 (1742739617.377887)  can0  1DA   [8]  C3 64 18 00 00 01 00 21
 (1742739617.382832)  can0  1D4   [8]  F7 07 00 00 47 46 30 1C
 (1742739617.383027)  can0  1F2   [8]  10 64 00 00 00 1E 01 0D
 (1742739617.383133)  can0  56E   [1]  46
 (1742739617.383713)  can0  1DB   [8]  FF A0 C1 AA 00 00 03 A7
 (1742739617.383856)  can0  1DC   [8]  6E 03 2F FD 08 C0 C3 17
 (1742739617.386931)  can0  11A   [8]  01 40 80 55 40 00 02 C7
 (1742739617.388022)  can0  1DA   [8]  C3 64 18 00 00 01 01 A4
 (1742739617.392586)  can0  1D4   [8]  F7 07 00 00 87 46 30 D0
 (1742739617.393149)  can0  1F2   [8]  10 64 00 00 00 1E 02 0E
 (1742739617.393713)  can0  284   [8]  00 00 00 00 00 00 4F D5
 (1742739617.394011)  can0  50B   [6]  00 00 02 C0 00 60
 (1742739617.394056)  can0  1DB   [8]  FF A0 C1 AA 00 00 00 AD
 (1742739617.394058)  can0  1DC   [8]  6E 03 2F FD 0C CC D8 5B
 (1742739617.397169)  can0  11A   [8]  01 40 80 AA 80 00 03 D1
 (1742739617.397958)  can0  1DA   [8]  C3 64 18 00 00 01 02 AE
 (1742739617.398352)  can0  55A   [8]  00 2D 2B 00 5F 2D 5B 48
 (1742739617.403131)  can0  1D4   [8]  F7 07 00 00 C7 46 30 17
 (1742739617.403207)  can0  1F2   [8]  10 64 00 00 00 1E 03 0F
 (1742739617.403613)  can0  1DB   [8]  FF A0 C1 AA 00 00 01 28
 (1742739617.404248)  can0  1DC   [8]  6E 03 2F FD 01 0C D5 80
 (1742739617.404350)  can0  55B   [8]  BD 00 AA 00 FF C0 10 D9
 (1742739617.406462)  can0  11A   [8]  01 40 80 AA C0 00 00 1C
 (1742739617.407863)  can0  1DA   [8]  C3 64 18 00 00 01 03 2B
 (1742739617.413073)  can0  1D4   [8]  F7 07 00 00 07 46 30 DB
 (1742739617.413308)  can0  1F2   [8]  10 64 00 00 00 1E 00 0C
 (1742739617.413559)  can0  1DB   [8]  FF A0 C1 AA 00 00 02 22
 (1742739617.413937)  can0  1DC   [8]  6E 03 2F FD 05 08 C6 5C
 (1742739617.413975)  can0  284   [8]  00 00 00 00 00 00 50 D6
 (1742739617.417255)  can0  11A   [8]  01 40 80 55 00 00 01 0A
 (1742739617.418010)  can0  1DA   [8]  C3 64 18 00 00 01 00 21
 (1742739617.421777)  can0  54A   [8]  A0 00 70 02 00 00 00 30
 (1742739617.422759)  can0  54B   [8]  01 08 80 12 04 00 00 00
 (1742739617.423408)  can0  1D4   [8]  F7 07 00 00 47 46 30 1C
 (1742739617.424974)  can0  1DB   [8]  FF A0 C1 AA 00 00 03 A7
 (1742739617.425038)  can0  1DC   [8]  6E 03 2F FD 08 C0 C3 17
 (1742739617.425040)  can0  1F2   [8]  10 64 00 00 00 1E 01 0D
 (1742739617.425042)  can0  54C   [8]  65 66 00 00 00 00 60 00
 (1742739617.425043)  can0  54F   [8]  22 01 00 00 07 C0 8A 21
 (1742739617.426962)  can0  11A   [8]  01 40 80 55 40 00 02 C7
 (1742739617.428860)  can0  1DA   [8]  C3 64 18 00 00 01 01 A4
 (1742739617.433886)  can0  1DB   [8]  FF A0 C1 AA 00 00 00 AD
 (1742739617.433945)  can0  1D4   [8]  F7 07 00 00 87 46 30 D0
 (1742739617.435092)  can0  1DC   [8]  6E 03 2F FD 0C CC D8 5B
 (1742739617.435155)  can0  1F2   [8]  10 64 00 00 00 1E 02 0E
 (1742739617.435164)  can0  284   [8]  00 00 00 00 00 00 51 D7
 (1742739617.435167)  can0  380   [8]  02 04 10 21 00 00 00 B0
 (1742739617.435260)  can0  5BF   [8]  00 00 00 00 28 00 00 09
 (1742739617.437253)  can0  11A   [8]  01 40 80 AA 80 00 03 D1
 (1742739617.437809)  can0  1DA   [8]  C3 64 18 00 00 01 02 AE
 (1742739617.443409)  can0  1DB   [8]  FF A0 C1 AA 00 00 01 28
 (1742739617.443862)  can0  1DC   [8]  6E 03 2F FD 01 0C D5 80
 (1742739617.443919)  can0  1D4   [8]  F7 07 00 00 C7 46 30 17
 (1742739617.444127)  can0  1F2   [8]  10 64 00 00 00 1E 03 0F
 (1742739617.446566)  can0  11A   [8]  01 40 80 AA C0 00 00 1C
 (1742739617.454954)  can0  1DA   [8]  C3 64 18 00 00 01 03 2B
 (1742739617.455701)  can0  1DB   [8]  FF A0 C1 AA 00 00 02 22
 (1742739617.455730)  can0  1DC   [8]  6E 03 2F FD 05 08 C6 5C
 (1742739617.455730)  can0  1D4   [8]  F7 07 00 00 07 46 30 DB
 (1742739617.455731)  can0  1F2   [8]  10 64 00 00 00 1E 00 0C
 (1742739617.455732)  can0  284   [8]  00 00 00 00 00 00 52 D8
 (1742739617.456036)  can0  50C   [6]  00 00 00 02 5D 63
 (1742739617.457027)  can0  11A   [8]  01 40 80 55 00 00 01 0A
 (1742739617.457803)  can0  1DA   [8]  C3 64 18 00 00 01 00 21
 (1742739617.463924)  can0  1DB   [8]  FF A0 C1 AA 00 00 03 A7
 (1742739617.463990)  can0  1DC   [8]  6E 03 2F FD 08 C0 C3 17
 (1742739617.465228)  can0  1D4   [8]  F7 07 00 00 47 46 30 1C
 (1742739617.465294)  can0  1F2   [8]  10 64 00 00 00 1E 01 0D
 (1742739617.467038)  can0  11A   [8]  01 40 80 55 40 00 02 C7
 (1742739617.468083)  can0  1DA   [8]  C3 64 18 00 00 01 01 A4
 (1742739617.474547)  can0  1DB   [8]  FF A0 C1 AA 00 00 00 AD
 (1742739617.474680)  can0  1DC   [8]  6E 03 2F FD 0C CC D8 5B
 (1742739617.476046)  can0  1D4   [8]  F7 07 00 00 87 46 30 D0
 (1742739617.476097)  can0  1F2   [8]  10 64 00 00 00 1E 02 0E
 (1742739617.476098)  can0  284   [8]  00 00 00 00 00 00 53 D9
 (1742739617.476099)  can0  50A   [6]  85 42 A0 0D 80 A0
 (1742739617.477202)  can0  11A   [8]  01 40 80 AA 80 00 03 D1
 (1742739617.477911)  can0  1DA   [8]  C3 64 18 00 00 01 02 AE
 (1742739617.483777)  can0  1DB   [8]  FF A0 C1 AA 00 00 01 28
 (1742739617.483823)  can0  1DC   [8]  6E 03 2F FD 01 0C D5 80
 (1742739617.484931)  can0  1D4   [8]  F7 07 00 00 C7 46 30 17
 (1742739617.485445)  can0  1F2   [8]  10 64 00 00 00 1E 03 0F
 (1742739617.485553)  can0  56E   [1]  46
 (1742739617.486467)  can0  11A   [8]  01 40 80 AA C0 00 00 1C
 (1742739617.488204)  can0  1DA   [8]  C3 64 18 00 00 01 03 2B
 (1742739617.494199)  can0  1DB   [8]  FF A0 C1 AA 00 00 02 22
 (1742739617.494275)  can0  1DC   [8]  6E 03 2F FD 05 08 C6 5C
 (1742739617.495140)  can0  1D4   [8]  F7 07 00 00 07 46 30 DB
 (1742739617.495900)  can0  1F2   [8]  10 64 00 00 00 1E 00 0C
 (1742739617.495950)  can0  284   [8]  00 00 00 00 00 00 54 DA
 (1742739617.495952)  can0  50B   [6]  00 00 02 C0 00 60
 (1742739617.497036)  can0  11A   [8]  01 40 80 55 00 00 01 0A
 (1742739617.497811)  can0  1DA   [8]  C3 64 18 00 00 01 00 21
 (1742739617.498108)  can0  55A   [8]  00 2D 2B 00 5F 2D 5B 48
 (1742739617.503554)  can0  1DB   [8]  FF A0 C1 AA 00 00 03 A7
 (1742739617.503855)  can0  1DC   [8]  6E 03 2F FD 08 C0 C3 17
 (1742739617.504106)  can0  55B   [8]  BD 00 AA 00 FF C0 11 5C
 (1742739617.505129)  can0  1D4   [8]  F7 07 00 00 47 46 30 1C
 (1742739617.505440)  can0  1F2   [8]  10 64 00 00 00 1E 01 0D
 (1742739617.506967)  can0  11A   [8]  01 40 80 55 40 00 02 C7
 (1742739617.507817)  can0  1DA   [8]  C3 64 18 00 00 01 01 A4
 (1742739617.513709)  can0  1DB   [8]  FF A0 C1 AA 00 00 00 AD
 (1742739617.513766)  can0  1DC   [8]  6E 03 2F FD 0C CC D8 5B
 (1742739617.515605)  can0  1D4   [8]  F7 07 00 00 87 46 30 D0
 (1742739617.515995)  can0  1F2   [8]  10 64 00 00 00 1E 02 0E
 (1742739617.516323)  can0  284   [8]  00 00 00 00 00 00 55 DB
 (1742739617.517073)  can0  11A   [8]  01 40 80 AA 80 00 03 D1
 (1742739617.517799)  can0  1DA   [8]  C3 64 18 00 00 01 02 AE
 (1742739617.521654)  can0  54A   [8]  12 00 70 02 00 00 00 30
 (1742739617.522587)  can0  54B   [8]  01 08 80 12 04 00 00 00
 (1742739617.523430)  can0  1DB   [8]  FF A0 C1 AA 00 00 01 28
 (1742739617.524056)  can0  1DC   [8]  6E 03 2F FD 01 0C D5 80
 (1742739617.524090)  can0  54C   [8]  65 66 00 00 00 00 60 00
 (1742739617.524664)  can0  54F   [8]  22 01 00 00 07 00 8A 21
 (1742739617.525683)  can0  1D4   [8]  F7 07 00 00 C7 46 30 17
 (1742739617.525908)  can0  1F2   [8]  10 64 00 00 00 1E 03 0F
 (1742739617.526289)  can0  11A   [8]  01 40 80 AA C0 00 00 1C
 (1742739617.527761)  can0  1DA   [8]  C3 64 18 00 00 01 03 2B
 (1742739617.533373)  can0  1DB   [8]  FF A0 C1 AA 00 00 02 22
 (1742739617.533916)  can0  1DC   [8]  6E 03 2F FD 05 08 C6 5C
 (1742739617.533951)  can0  380   [8]  02 04 10 21 00 00 00 8D
 (1742739617.534223)  can0  5BF   [8]  00 00 00 00 28 00 00 1A
 (1742739617.535962)  can0  1D4   [8]  F7 07 00 00 07 46 30 DB
 (1742739617.536206)  can0  1F2   [8]  10 64 00 00 00 1E 00 0C
 (1742739617.536616)  can0  284   [8]  00 00 00 00 00 00 56 DC
 (1742739617.537045)  can0  11A   [8]  01 40 80 55 00 00 01 0A
 (1742739617.537859)  can0  1DA   [8]  C3 64 18 00 00 01 00 21
 (1742739617.543787)  can0  1DB   [8]  FF A0 C1 AA 00 00 03 A7
 (1742739617.543849)  can0  1DC   [8]  6E 03 2F FD 08 C0 C3 17
 (1742739617.546467)  can0  1D4   [8]  F7 07 00 00 47 46 30 1C
 (1742739617.546569)  can0  1F2   [8]  10 64 00 00 00 1E 01 0D
 (1742739617.546862)  can0  11A   [8]  01 40 80 55 40 00 02 C7
 (1742739617.547850)  can0  1DA   [8]  C3 64 18 00 00 01 01 A4
 (1742739617.553908)  can0  1DB   [8]  FF A0 C1 AA 00 00 00 AD
 (1742739617.553974)  can0  1DC   [8]  6E 03 2F FD 0C CC D8 5B
 (1742739617.556687)  can0  1D4   [8]  F7 07 00 00 87 46 30 D0
 (1742739617.556742)  can0  1F2   [8]  10 64 00 00 00 1E 02 0E
 (1742739617.556965)  can0  284   [8]  00 00 00 00 00 00 57 DD
 (1742739617.557421)  can0  11A   [8]  01 40 80 AA 80 00 03 D1
 (1742739617.557456)  can0  50C   [6]  00 00 00 03 5D F4
 (1742739617.557884)  can0  1DA   [8]  C3 64 18 00 00 01 02 AE
 (1742739617.563407)  can0  1DB   [8]  FF A0 C1 AA 00 00 01 28
 (1742739617.563685)  can0  1DC   [8]  6E 03 2F FD 01 0C D5 80
 (1742739617.566272)  can0  11A   [8]  01 40 80 AA C0 00 00 1C
 (1742739617.566678)  can0  1D4   [8]  F7 07 00 00 C7 46 30 17
 (1742739617.567246)  can0  1F2   [8]  10 64 00 00 00 1E 03 0F
 (1742739617.568080)  can0  1DA   [8]  C3 64 18 00 00 01 03 2B
 (1742739617.573523)  can0  1DB   [8]  FF A0 C1 AA 00 00 02 22
 (1742739617.574040)  can0  1DC   [8]  6E 03 2F FD 05 08 C6 5C
 (1742739617.577425)  can0  1D4   [8]  F7 07 00 00 07 46 30 DB
 (1742739617.577996)  can0  11A   [8]  01 40 80 55 00 00 01 0A
 (1742739617.578137)  can0  1F2   [8]  10 64 00 00 00 1E 00 0C
 (1742739617.578276)  can0  284   [8]  00 00 00 00 00 00 58 DE
 (1742739617.578864)  can0  1DA   [8]  C3 64 18 00 00 01 00 21
 (1742739617.578909)  can0  50A   [6]  85 62 A0 0D 80 A0
 (1742739617.583604)  can0  1DB   [8]  FF C0 C1 AA 00 00 03 54
 (1742739617.583649)  can0  1DC   [8]  6E 03 2F FD 08 C0 C3 17
 (1742739617.587999)  can0  11A   [8]  01 40 80 55 40 00 02 C7
 (1742739617.588070)  can0  56E   [1]  46
 (1742739617.588442)  can0  1D4   [8]  F7 07 00 00 47 46 30 1C
 (1742739617.588473)  can0  1F2   [8]  10 64 00 00 00 1E 01 0D
 (1742739617.588529)  can0  284   [8]  00 00 00 00 00 00 59 DF
 (1742739617.588532)  can0  1DA   [8]  C3 64 18 00 00 01 01 A4
 (1742739617.593522)  can0  1DB   [8]  FF A0 C1 AA 00 00 00 AD
 (1742739617.593984)  can0  1DC   [8]  6E 03 2F FD 0C CC D8 5B
 (1742739617.597249)  can0  11A   [8]  01 40 80 AA 80 00 03 D1
 (1742739617.598491)  can0  1D4   [8]  F7 07 00 00 87 46 30 D0
 (1742739617.598557)  can0  1F2   [8]  10 64 00 00 00 1E 02 0E
 (1742739617.598559)  can0  50B   [6]  00 00 02 C0 00 60
 (1742739617.598561)  can0  1DA   [8]  C3 64 18 00 00 01 02 AE
 (1742739617.598700)  can0  55A   [8]  00 2D 2B 00 5F 2D 5B 48
 (1742739617.603539)  can0  1DB   [8]  FF A0 C1 AA 00 00 01 28
 (1742739617.603825)  can0  1DC   [8]  6E 03 2F FD 01 0C D5 80
 (1742739617.604126)  can0  55B   [8]  BD 00 AA 00 FF C0 12 56
 (1742739617.606251)  can0  11A   [8]  01 40 80 AA C0 00 00 1C
 (1742739617.607623)  can0  1D4   [8]  F7 07 00 00 C7 46 30 17
 (1742739617.607953)  can0  1DA   [8]  C3 64 18 00 00 01 03 2B
 (1742739617.608230)  can0  1F2   [8]  10 64 00 00 00 1E 03 0F
 (1742739617.608545)  can0  284   [8]  00 00 00 00 00 00 5A E0
 (1742739617.613530)  can0  1DB   [8]  FF A0 C1 AA 00 00 02 22
 (1742739617.614005)  can0  1DC   [8]  6E 03 2F FD 05 08 C6 5C
 (1742739617.617280)  can0  11A   [8]  01 40 80 55 00 00 01 0A
 (1742739617.617838)  can0  1DA   [8]  C3 64 18 00 00 01 00 21
 (1742739617.618420)  can0  1D4   [8]  F7 07 00 00 07 46 30 DB
 (1742739617.618463)  can0  1F2   [8]  10 64 00 00 00 1E 00 0C
 (1742739617.621971)  can0  54A   [8]  A0 00 70 02 00 00 00 30
 (1742739617.622880)  can0  54B   [8]  01 08 80 12 04 00 00 00
 (1742739617.623472)  can0  1DB   [8]  FF A0 C1 AA 00 00 03 A7
 (1742739617.624272)  can0  1DC   [8]  6E 03 2F FD 08 C0 C3 17
 (1742739617.624363)  can0  54C   [8]  65 66 00 00 00 00 60 00
 (1742739617.624906)  can0  54F   [8]  22 01 00 00 07 40 8A 21
 (1742739617.626952)  can0  11A   [8]  01 40 80 55 40 00 02 C7
 (1742739617.628034)  can0  1DA   [8]  C3 64 18 00 00 01 01 A4
 (1742739617.629270)  can0  1D4   [8]  F7 07 00 00 47 46 30 1C
 (1742739617.629370)  can0  1F2   [8]  10 64 00 00 00 1E 01 0D
 (1742739617.629373)  can0  284   [8]  00 00 00 00 00 00 5B E1
 (1742739617.633901)  can0  1DB   [8]  FF A0 C1 AA 00 00 00 AD
 (1742739617.633973)  can0  1DC   [8]  6E 03 2F FD 0C CC D8 5B
 (1742739617.634600)  can0  380   [8]  02 04 10 21 00 00 00 9E
 (1742739617.634658)  can0  5BF   [8]  00 00 00 00 28 00 00 2B
 (1742739617.637300)  can0  11A   [8]  01 40 80 AA 80 00 03 D1
 (1742739617.639605)  can0  1DA   [8]  C3 64 18 00 00 01 02 AE
 (1742739617.639724)  can0  1D4   [8]  F7 07 00 00 87 46 30 D0
 (1742739617.639727)  can0  1F2   [8]  10 64 00 00 00 1E 02 0E
 (1742739617.643832)  can0  1DB   [8]  FF A0 C1 AA 00 00 01 28
 (1742739617.643912)  can0  1DC   [8]  6E 03 2F FD 01 0C D5 80
 (1742739617.646627)  can0  11A   [8]  01 40 80 AA C0 00 00 1C
 (1742739617.647995)  can0  1DA   [8]  C3 64 18 00 00 01 03 2B
 (1742739617.648852)  can0  1D4   [8]  F7 07 00 00 C7 46 30 17
 (1742739617.649670)  can0  1F2   [8]  10 64 00 00 00 1E 03 0F
 (1742739617.649723)  can0  284   [8]  00 00 00 00 00 00 5C E2
 (1742739617.653848)  can0  1DB   [8]  FF A0 C1 AA 00 00 02 22
 (1742739617.653915)  can0  1DC   [8]  6E 03 2F FD 05 08 C6 5C
 (1742739617.657338)  can0  11A   [8]  01 40 00 55 00 00 01 15
 (1742739617.658195)  can0  1DA   [8]  C3 64 18 00 00 01 00 21
 (1742739617.659520)  can0  1D4   [8]  F7 07 00 00 07 46 30 DB
 (1742739617.659588)  can0  1F2   [8]  10 64 00 00 00 1E 00 0C
 (1742739617.659591)  can0  50C   [6]  00 00 00 00 5D C8
 (1742739617.663398)  can0  1DB   [8]  FF C0 C1 AA 00 00 03 54
 (1742739617.664098)  can0  1DC   [8]  6E 03 2F FD 08 C0 C3 17
 (1742739617.667111)  can0  11A   [8]  01 40 00 55 40 00 02 D8
 (1742739617.667958)  can0  1DA   [8]  C3 64 18 00 00 01 01 A4
 (1742739617.669349)  can0  1D4   [8]  F7 07 00 00 47 46 30 1C
 (1742739617.670379)  can0  1F2   [8]  10 64 00 00 00 1E 01 0D
 (1742739617.670470)  can0  284   [8]  00 00 00 00 00 00 5D E3
 (1742739617.670473)  can0  5A9   [8]  86 1E F0 0E C3 60 00 00
 (1742739617.673981)  can0  1DB   [8]  FF A0 C1 AA 00 00 00 AD
 (1742739617.674049)  can0  1DC   [8]  6E 03 2F FD 0C CC D8 5B
 (1742739617.677347)  can0  11A   [8]  01 40 00 AA 80 00 03 CE
 (1742739617.678036)  can0  1DA   [8]  C3 64 18 00 00 01 02 AE
 (1742739617.679644)  can0  1D4   [8]  F7 07 00 00 87 46 30 D0
 (1742739617.680456)  can0  1F2   [8]  10 64 00 00 00 1E 02 0E
 (1742739617.680569)  can0  50A   [6]  85 02 A0 0D 80 A0
 (1742739617.683498)  can0  1DB   [8]  FF A0 C1 AA 00 00 01 28
 (1742739617.683992)  can0  1DC   [8]  6E 03 2F FD 01 0C D5 80
 (1742739617.686517)  can0  11A   [8]  01 40 00 AA C0 00 00 03
 (1742739617.687965)  can0  1DA   [8]  C3 64 18 00 00 01 03 2B
 (1742739617.688895)  can0  56E   [1]  46
 (1742739617.689761)  can0  1D4   [8]  F7 07 00 00 C7 46 30 17
 (1742739617.690560)  can0  1F2   [8]  10 64 00 00 00 1E 03 0F
 (1742739617.690616)  can0  284   [8]  00 00 00 00 00 00 5E E4
 (1742739617.693484)  can0  1DB   [8]  FF C0 C1 AA 00 00 02 D1
 (1742739617.694027)  can0  1DC   [8]  6E 03 2F FD 05 08 C6 5C
 (1742739617.697311)  can0  11A   [8]  01 40 00 55 00 00 01 15
 (1742739617.697943)  can0  1DA   [8]  C3 64 18 00 00 01 00 21
 (1742739617.698474)  can0  55A   [8]  00 2D 2B 00 5F 2D 5B 48
 (1742739617.700299)  can0  1D4   [8]  F7 07 00 00 07 46 30 DB
 (1742739617.700731)  can0  1F2   [8]  10 64 00 00 00 1E 00 0C
 (1742739617.700812)  can0  50B   [6]  00 00 02 C0 00 60
 (1742739617.703656)  can0  1DB   [8]  FF C0 C1 AA 00 00 03 54
 (1742739617.704375)  can0  1DC   [8]  6E 03 2F FD 08 C0 C3 17
 (1742739617.704467)  can0  55B   [8]  BD 00 AA 00 FF C0 13 D3
 (1742739617.706980)  can0  11A   [8]  01 40 00 55 40 00 02 D8
 (1742739617.708027)  can0  1DA   [8]  C3 64 18 00 00 01 01 A4
 (1742739617.710585)  can0  1D4   [8]  F7 07 00 00 47 46 30 1C
 (1742739617.710639)  can0  1F2   [8]  10 64 00 00 00 1E 01 0D
 (1742739617.711114)  can0  284   [8]  00 00 00 00 00 00 5F E5
 (1742739617.713718)  can0  1DB   [8]  FF C0 C1 AA 00 00 00 5E
 (1742739617.713989)  can0  1DC   [8]  6E 03 2F FD 0C CC D8 5B
 (1742739617.714420)  can0  5BC   [8]  34 C3 2C 28 C1 06 40 5A
 (1742739617.714473)  can0  5C0   [8]  40 52 52 00 C8 08 00 00
 (1742739617.717054)  can0  11A   [8]  01 40 00 AA 80 00 03 CE
 (1742739617.717706)  can0  1DA   [8]  C3 64 18 00 00 01 02 AE
 (1742739617.720386)  can0  1D4   [8]  F7 07 00 00 87 46 30 D0
 (1742739617.720919)  can0  1F2   [8]  10 64 00 00 00 1E 02 0E
 (1742739617.721985)  can0  54A   [8]  12 00 70 02 00 00 00 30
 (1742739617.722745)  can0  54B   [8]  01 08 80 12 04 00 00 00
 (1742739617.723258)  can0  1DB   [8]  FF C0 C1 AA 00 00 01 DB
 (1742739617.723515)  can0  1DC   [8]  6E 03 2F FD 01 0C D5 80
 (1742739617.723777)  can0  54C   [8]  66 66 00 00 00 00 60 00
 (1742739617.724750)  can0  54F   [8]  22 01 00 00 07 80 8A 21
 (1742739617.726279)  can0  11A   [8]  01 40 00 AA C0 00 00 03
 (1742739617.727716)  can0  1DA   [8]  C3 64 18 00 00 01 03 2B
 (1742739617.730885)  can0  1D4   [8]  F7 07 00 00 C7 46 30 17
 (1742739617.731654)  can0  1F2   [8]  10 64 00 00 00 1E 03 0F
 (1742739617.731738)  can0  284   [8]  00 00 00 00 00 00 60 E6
 (1742739617.733468)  can0  1DB   [8]  FF C0 C1 AA 00 00 02 D1
 (1742739617.733990)  can0  1DC   [8]  6E 03 2F FD 05 08 C6 5C
 (1742739617.734901)  can0  380   [8]  02 04 10 21 00 00 00 AF
 (1742739617.734960)  can0  5BF   [8]  00 00 00 00 28 00 00 3C
 (1742739617.737400)  can0  11A   [8]  01 40 00 55 00 00 01 15
 (1742739617.738369)  can0  1DA   [8]  C3 64 18 00 00 01 00 21
 (1742739617.741156)  can0  1D4   [8]  F7 07 00 00 07 46 30 DB
 (1742739617.741193)  can0  1F2   [8]  10 64 00 00 00 1E 00 0C
 (1742739617.741531)  can0  5B9   [5]  30 96 61 2C 28
 (1742739617.743763)  can0  1DB   [8]  FF C0 C1 AA 00 00 03 54
 (1742739617.743814)  can0  1DC   [8]  6E 03 2F FD 08 C0 C3 17
 (1742739617.747070)  can0  11A   [8]  01 40 00 55 40 00 02 D8
 (1742739617.747761)  can0  1DA   [8]  C3 64 18 00 00 01 01 A4
 (1742739617.751157)  can0  1D4   [8]  F7 07 00 00 47 46 30 1C
 (1742739617.751668)  can0  1F2   [8]  10 64 00 00 00 1E 01 0D
 (1742739617.751704)  can0  284   [8]  00 00 00 00 00 00 61 E7
 (1742739617.753292)  can0  1DB   [8]  FF C0 C1 AA 00 00 00 5E
 (1742739617.753593)  can0  1DC   [8]  6E 03 2F FD 0C CC D8 5B
 (1742739617.757112)  can0  11A   [8]  01 40 00 AA 80 00 03 CE
 (1742739617.757787)  can0  1DA   [8]  C3 64 18 00 00 01 02 AE
 (1742739617.761514)  can0  1D4   [8]  F7 07 00 00 87 46 30 D0
 (1742739617.762317)  can0  1F2   [8]  10 64 00 00 00 1E 02 0E
 (1742739617.762376)  can0  50C   [6]  00 00 00 01 5D 5F
 (1742739617.763470)  can0  1DB   [8]  FF C0 C1 AA 00 00 01 DB
 (1742739617.763938)  can0  1DC   [8]  6E 03 2F FD 01 0C D5 80
 (1742739617.766267)  can0  11A   [8]  01 40 00 AA C0 00 00 03
 (1742739617.767779)  can0  1DA   [8]  C3 64 18 00 00 01 03 2B
