 (1743356867.227934)  can0  1D4   [8]  F7 07 00 00 87 46 00 70
 (1743356867.227964)  can0  1F2   [8]  10 64 00 00 00 1E 02 0E
 (1743356867.228103)  can0  50B   [6]  00 00 06 C0 00 60
 (1743356867.228562)  can0  380   [8]  02 04 10 21 00 00 00 8D
 (1743356867.228961)  can0  5BF   [8]  00 00 00 00 28 00 00 1A
 (1743356867.231025)  can0  11A   [8]  11 40 00 55 00 00 01 65
 (1743356867.233965)  can0  1DB   [8]  FF E0 B1 EA 00 00 01 2F
 (1743356867.234007)  can0  1DC   [8]  6E 0D AF FD 01 0C D5 6E
 (1743356867.234009)  can0  55B   [8]  5C 80 AA 00 E7 80 12 F9
 (1743356867.236192)  can0  1DA   [8]  B3 64 18 00 00 01 02 7B
 (1743356867.236242)  can0  55A   [8]  00 3E 36 00 5F 3E 5B 08
 (1743356867.238143)  can0  1D4   [8]  F7 07 00 00 C7 46 00 B7
 (1743356867.238810)  can0  1F2   [8]  10 64 00 00 00 1E 03 0F
 (1743356867.238830)  can0  284   [8]  00 00 00 00 00 00 35 BB
 (1743356867.255247)  can0  11A   [8]  11 40 00 55 40 00 02 A8
 (1743356867.255281)  can0  54A   [8]  A0 00 70 02 00 00 00 2B
 (1743356867.255282)  can0  1DB   [8]  FF C0 B1 AA 00 00 02 EA
 (1743356867.255284)  can0  1DC   [8]  6E 0D AF FD 05 08 C6 B2
 (1743356867.255284)  can0  54B   [8]  01 08 80 12 04 00 00 00
 (1743356867.255285)  can0  54C   [8]  98 66 00 00 00 00 56 00
 (1743356867.255286)  can0  54F   [8]  46 01 00 00 07 40 8C 49
 (1743356867.255286)  can0  1DA   [8]  B3 64 18 00 00 01 03 FE
 (1743356867.255287)  can0  1D4   [8]  F7 07 00 00 07 46 00 7B
 (1743356867.255308)  can0  1F2   [8]  10 64 00 00 00 1E 00 0C
 (1743356867.255310)  can0  11A   [8]  11 40 00 AA 80 00 03 BE
 (1743356867.255310)  can0  1DB   [8]  FF C0 B1 AA 00 00 03 6F
 (1743356867.255311)  can0  1DC   [8]  6E 0D AF FD 08 C0 C3 F9
 (1743356867.257883)  can0  1DA   [8]  B3 64 18 00 00 01 00 F4
 (1743356867.258385)  can0  1D4   [8]  F7 07 00 00 47 46 00 BC
 (1743356867.258655)  can0  1F2   [8]  10 64 00 00 00 1E 01 0D
 (1743356867.259308)  can0  284   [8]  00 00 00 00 00 00 36 BC
 (1743356867.259971)  can0  11A   [8]  11 40 00 AA C0 00 00 73
 (1743356867.263006)  can0  1DB   [8]  FF C0 B1 AA 00 00 00 65
 (1743356867.263434)  can0  1DC   [8]  6E 0D AF FD 0C CC D8 B5
 (1743356867.265835)  can0  1DA   [8]  B3 64 18 00 00 01 01 71
 (1743356867.268710)  can0  1D4   [8]  F7 07 00 00 87 46 00 70
 (1743356867.269105)  can0  1F2   [8]  10 64 00 00 00 1E 02 0E
 (1743356867.270891)  can0  11A   [8]  11 40 00 55 00 00 01 65
 (1743356867.273035)  can0  1DB   [8]  FF C0 B1 AA 00 00 01 E0
 (1743356867.273278)  can0  1DC   [8]  6E 0D AF FD 01 0C D5 6E
 (1743356867.275779)  can0  1DA   [8]  B3 64 18 00 00 01 02 7B
 (1743356867.279531)  can0  1D4   [8]  F7 07 00 00 C7 46 00 B7
 (1743356867.279602)  can0  1F2   [8]  10 64 00 00 00 1E 03 0F
 (1743356867.279614)  can0  284   [8]  00 00 00 00 00 00 37 BD
 (1743356867.280601)  can0  11A   [8]  11 40 00 55 40 00 02 A8
 (1743356867.280909)  can0  56E   [1]  46
 (1743356867.283343)  can0  1DB   [8]  FF E0 B1 AA 00 00 02 BB
 (1743356867.283380)  can0  1DC   [8]  6E 0D AF FD 05 08 C6 B2
 (1743356867.286848)  can0  1DA   [8]  B3 64 18 00 00 01 03 FE
 (1743356867.289946)  can0  1D4   [8]  F7 07 00 00 07 46 00 7B
 (1743356867.290028)  can0  1F2   [8]  10 64 00 00 00 1E 00 0C
 (1743356867.290032)  can0  50C   [6]  00 00 00 02 5D 63
 (1743356867.291111)  can0  11A   [8]  11 40 00 AA 80 00 03 BE
 (1743356867.293586)  can0  1DB   [8]  FF E0 B1 AA 00 00 03 3E
 (1743356867.293669)  can0  1DC   [8]  6E 0D AF FD 08 C0 C3 F9
 (1743356867.296137)  can0  1DA   [8]  B3 64 18 00 00 01 00 F4
 (1743356867.300101)  can0  1D4   [8]  F7 07 00 00 47 46 00 BC
 (1743356867.300181)  can0  1F2   [8]  10 64 00 00 00 1E 01 0D
 (1743356867.300224)  can0  284   [8]  00 00 00 00 00 00 38 BE
 (1743356867.300226)  can0  11A   [8]  11 40 00 AA C0 00 00 73
 (1743356867.303324)  can0  1DB   [8]  FF E0 B1 AA 00 00 00 34
 (1743356867.303373)  can0  1DC   [8]  6E 0D AF FD 0C CC D8 B5
 (1743356867.305955)  can0  1DA   [8]  B3 64 18 00 00 01 01 71
 (1743356867.310622)  can0  1D4   [8]  F7 07 00 00 87 46 00 70
 (1743356867.310721)  can0  1F2   [8]  10 64 00 00 00 1E 02 0E
 (1743356867.310726)  can0  50A   [6]  85 52 A0 11 80 A0
 (1743356867.310986)  can0  11A   [8]  11 40 00 55 00 00 01 65
 (1743356867.313509)  can0  1DB   [8]  FF E0 B1 AA 00 00 01 B1
 (1743356867.313596)  can0  1DC   [8]  6E 0D AF FD 01 0C D5 6E
 (1743356867.315970)  can0  1DA   [8]  B3 64 18 00 00 01 02 7B
 (1743356867.321665)  can0  1D4   [8]  F7 07 00 00 C7 46 00 B7
 (1743356867.321794)  can0  1F2   [8]  10 64 00 00 00 1E 03 0F
 (1743356867.321797)  can0  284   [8]  00 00 00 00 00 00 39 BF
 (1743356867.321799)  can0  11A   [8]  11 40 00 55 40 00 02 A8
 (1743356867.323579)  can0  1DB   [8]  FF C0 B1 AA 00 00 02 EA
 (1743356867.323631)  can0  1DC   [8]  6E 0D AF FD 05 08 C6 B2
 (1743356867.326893)  can0  1DA   [8]  B3 64 18 00 00 01 03 FE
 (1743356867.329063)  can0  380   [8]  02 04 10 21 00 00 00 9E
 (1743356867.329133)  can0  5BF   [8]  00 00 00 00 28 00 00 2B
 (1743356867.330093)  can0  1D4   [8]  F7 07 00 00 07 46 00 7B
 (1743356867.330662)  can0  1F2   [8]  10 64 00 00 00 1E 00 0C
 (1743356867.331224)  can0  50B   [6]  00 00 06 C0 00 60
 (1743356867.331312)  can0  11A   [8]  11 40 00 AA 80 00 03 BE
 (1743356867.333556)  can0  1DB   [8]  FF C0 B1 AA 00 00 03 6F
 (1743356867.333922)  can0  1DC   [8]  6E 0D AF FD 08 C0 C3 F9
 (1743356867.333942)  can0  55B   [8]  5C 80 AA 00 E7 80 13 7C
 (1743356867.336315)  can0  1DA   [8]  B3 64 18 00 00 01 00 F4
 (1743356867.336397)  can0  55A   [8]  00 3E 36 00 5F 3E 5B 08
 (1743356867.340801)  can0  11A   [8]  11 40 00 AA C0 00 00 73
 (1743356867.340908)  can0  1D4   [8]  F7 07 00 00 47 46 00 BC
 (1743356867.342058)  can0  1F2   [8]  10 64 00 00 00 1E 01 0D
 (1743356867.342109)  can0  284   [8]  00 00 00 00 00 00 3A C0
 (1743356867.342928)  can0  54A   [8]  12 00 70 02 00 00 00 2B
 (1743356867.343532)  can0  1DB   [8]  FF C0 B1 AA 00 00 00 65
 (1743356867.343569)  can0  1DC   [8]  6E 0D AF FD 0C CC D8 B5
 (1743356867.343821)  can0  54B   [8]  01 08 80 12 04 00 00 00
 (1743356867.344497)  can0  54C   [8]  98 66 00 00 00 00 56 00
 (1743356867.345546)  can0  54F   [8]  46 01 00 00 07 80 8C 49
 (1743356867.345992)  can0  1DA   [8]  B3 64 18 00 00 01 01 71
 (1743356867.351727)  can0  1D4   [8]  F7 07 00 00 87 46 00 70
 (1743356867.351803)  can0  11A   [8]  11 40 00 55 00 00 01 65
 (1743356867.351945)  can0  1F2   [8]  10 64 00 00 00 1E 02 0E
 (1743356867.351989)  can0  284   [8]  00 00 00 00 00 00 3B C1
 (1743356867.353556)  can0  1DB   [8]  FF C0 B1 AA 00 00 01 E0
 (1743356867.353623)  can0  1DC   [8]  6E 0D AF FD 01 0C D5 6E
 (1743356867.356108)  can0  1DA   [8]  B3 64 18 00 00 01 02 7B
 (1743356867.361957)  can0  11A   [8]  11 40 00 55 40 00 02 A8
 (1743356867.362008)  can0  1D4   [8]  F7 07 00 00 C7 46 00 B7
 (1743356867.362009)  can0  1F2   [8]  10 64 00 00 00 1E 03 0F
 (1743356867.363333)  can0  1DB   [8]  FF C0 B1 AA 00 00 02 EA
 (1743356867.363398)  can0  1DC   [8]  6E 0D AF FD 05 08 C6 B2
 (1743356867.366071)  can0  1DA   [8]  B3 64 18 00 00 01 03 FE
 (1743356867.371249)  can0  11A   [8]  11 40 00 AA 80 00 03 BE
 (1743356867.371442)  can0  1D4   [8]  F7 07 00 00 07 46 00 7B
 (1743356867.371770)  can0  1F2   [8]  10 64 00 00 00 1E 00 0C
 (1743356867.371838)  can0  284   [8]  00 00 00 00 00 00 3C C2
 (1743356867.373078)  can0  1DB   [8]  FF C0 B1 AA 00 00 03 6F
 (1743356867.373432)  can0  1DC   [8]  6E 0D AF FD 08 C0 C3 F9
 (1743356867.375930)  can0  1DA   [8]  B3 64 18 00 00 01 00 F4
 (1743356867.380295)  can0  11A   [8]  11 40 00 AA C0 00 00 73
 (1743356867.381731)  can0  1D4   [8]  F7 07 00 00 47 46 00 BC
 (1743356867.381814)  can0  1F2   [8]  10 64 00 00 00 1E 01 0D
 (1743356867.382911)  can0  56E   [1]  46
 (1743356867.383688)  can0  1DB   [8]  FF C0 B1 AA 00 00 00 65
 (1743356867.383746)  can0  1DC   [8]  6E 0D AF FD 0C CC D8 B5
 (1743356867.385868)  can0  1DA   [8]  B3 64 18 00 00 01 01 71
 (1743356867.391089)  can0  11A   [8]  11 40 00 55 00 00 01 65
 (1743356867.391683)  can0  1D4   [8]  F7 07 00 00 87 46 00 70
 (1743356867.392260)  can0  1F2   [8]  10 64 00 00 00 1E 02 0E
 (1743356867.392530)  can0  284   [8]  00 00 00 00 00 00 3D C3
 (1743356867.392546)  can0  50C   [6]  00 00 00 03 5D F4
 (1743356867.393457)  can0  1DB   [8]  FF C0 B1 AA 00 00 01 E0
 (1743356867.393502)  can0  1DC   [8]  6E 0D AF FD 01 0C D5 6E
 (1743356867.396190)  can0  1DA   [8]  B3 64 18 00 00 01 02 7B
 (1743356867.400742)  can0  11A   [8]  11 40 00 55 40 00 02 A8
 (1743356867.401871)  can0  1D4   [8]  F7 07 00 00 C7 46 00 B7
 (1743356867.402281)  can0  1F2   [8]  10 64 00 00 00 1E 03 0F
 (1743356867.403082)  can0  1DB   [8]  FF C0 B1 AA 00 00 02 EA
 (1743356867.403460)  can0  1DC   [8]  6E 0D AF FD 05 08 C6 B2
 (1743356867.406018)  can0  1DA   [8]  B3 64 18 00 00 01 03 FE
 (1743356867.411037)  can0  11A   [8]  11 40 00 AA 80 00 03 BE
 (1743356867.413481)  can0  1D4   [8]  F7 07 00 00 07 46 00 7B
 (1743356867.413526)  can0  1F2   [8]  10 64 00 00 00 1E 00 0C
 (1743356867.413527)  can0  284   [8]  00 00 00 00 00 00 3E C4
 (1743356867.413552)  can0  50A   [6]  85 72 A0 11 80 A0
 (1743356867.413554)  can0  1DB   [8]  FF C0 B1 AA 00 00 03 6F
 (1743356867.413555)  can0  1DC   [8]  6E 0D AF FD 08 C0 C3 F9
 (1743356867.416093)  can0  1DA   [8]  B3 64 18 00 00 01 00 F4
 (1743356867.420287)  can0  11A   [8]  11 40 00 AA C0 00 00 73
 (1743356867.422395)  can0  1D4   [8]  F7 07 00 00 47 46 00 BC
 (1743356867.422818)  can0  1F2   [8]  10 64 00 00 00 1E 01 0D
 (1743356867.423562)  can0  1DB   [8]  FF C0 B1 AA 00 00 00 65
 (1743356867.423641)  can0  1DC   [8]  6E 0D AF FD 0C CC D8 B5
 (1743356867.425962)  can0  1DA   [8]  B3 64 18 00 00 01 01 71
 (1743356867.429330)  can0  380   [8]  02 04 10 21 00 00 00 AF
 (1743356867.429413)  can0  5BF   [8]  00 00 00 00 28 00 00 3C
 (1743356867.430902)  can0  11A   [8]  11 40 00 55 00 00 01 65
 (1743356867.432717)  can0  1D4   [8]  F7 07 00 00 87 46 00 70
 (1743356867.433302)  can0  1F2   [8]  10 64 00 00 00 1E 02 0E
 (1743356867.433341)  can0  284   [8]  00 00 00 00 00 00 3F C5
 (1743356867.434217)  can0  1DB   [8]  FF C0 B1 AA 00 00 01 E0
 (1743356867.434424)  can0  1DC   [8]  6E 0D AF FD 01 0C D5 6E
 (1743356867.434427)  can0  50B   [6]  00 00 06 C0 00 60
 (1743356867.434428)  can0  55B   [8]  5C 80 AA 00 E7 80 10 76
 (1743356867.436117)  can0  1DA   [8]  B3 64 18 00 00 01 02 7B
 (1743356867.436639)  can0  55A   [8]  00 3E 36 00 5F 3E 5B 08
 (1743356867.440919)  can0  11A   [8]  11 40 00 55 40 00 02 A8
 (1743356867.442608)  can0  54A   [8]  A0 00 70 02 00 00 00 2B
 (1743356867.443707)  can0  1D4   [8]  F7 07 00 00 C7 46 00 B7
 (1743356867.443898)  can0  1DB   [8]  FF C0 B1 AA 00 00 02 EA
 (1743356867.443918)  can0  1DC   [8]  6E 0D AF FD 05 08 C6 B2
 (1743356867.443919)  can0  1F2   [8]  10 64 00 00 00 1E 03 0F
 (1743356867.444023)  can0  54B   [8]  01 08 80 12 04 00 00 00
 (1743356867.444542)  can0  54C   [8]  98 66 00 00 00 00 56 00
 (1743356867.445557)  can0  54F   [8]  46 01 00 00 07 C0 8C 49
 (1743356867.445938)  can0  1DA   [8]  B3 64 18 00 00 01 03 FE
 (1743356867.451119)  can0  11A   [8]  11 40 00 AA 80 00 03 BE
 (1743356867.453187)  can0  1DB   [8]  FF A0 B1 AA 00 00 03 9C
 (1743356867.454375)  can0  1D4   [8]  F7 07 00 00 07 46 00 7B
 (1743356867.454445)  can0  1DC   [8]  6E 0D AF FD 08 C0 C3 F9
 (1743356867.454448)  can0  1F2   [8]  10 64 00 00 00 1E 00 0C
 (1743356867.454449)  can0  284   [8]  00 00 00 00 00 00 40 C6
 (1743356867.456099)  can0  1DA   [8]  B3 64 18 00 00 01 00 F4
 (1743356867.460791)  can0  11A   [8]  11 40 00 AA C0 00 00 73
 (1743356867.463387)  can0  1DB   [8]  FF A0 B1 AA 00 00 00 96
 (1743356867.463485)  can0  1DC   [8]  6E 0D AF FD 0C CC D8 B5
 (1743356867.463950)  can0  1D4   [8]  F7 07 00 00 47 46 00 BC
 (1743356867.464009)  can0  1F2   [8]  10 64 00 00 00 1E 01 0D
 (1743356867.466094)  can0  1DA   [8]  B3 64 18 00 00 01 01 71
 (1743356867.470902)  can0  11A   [8]  11 40 00 55 00 00 01 65
 (1743356867.472987)  can0  1DB   [8]  FF A0 B1 AA 00 00 01 13
 (1743356867.473288)  can0  1DC   [8]  6E 0D AF FD 01 0C D5 6E
 (1743356867.473535)  can0  1D4   [8]  F7 07 00 00 87 46 00 70
 (1743356867.474019)  can0  1F2   [8]  10 64 00 00 00 1E 02 0E
 (1743356867.474076)  can0  284   [8]  00 00 00 00 00 00 41 C7
 (1743356867.476103)  can0  1DA   [8]  B3 64 18 00 00 01 02 7B
 (1743356867.481180)  can0  11A   [8]  11 40 00 55 40 00 02 A8
 (1743356867.483613)  can0  1DB   [8]  FF A0 B1 AA 00 00 02 19
 (1743356867.483730)  can0  1DC   [8]  6E 0D AF FD 05 08 C6 B2
 (1743356867.484430)  can0  1D4   [8]  F7 07 00 00 C7 46 00 B7
 (1743356867.484539)  can0  1F2   [8]  10 64 00 00 00 1E 03 0F
 (1743356867.485033)  can0  56E   [1]  46
 (1743356867.485917)  can0  1DA   [8]  B3 64 18 00 00 01 03 FE
 (1743356867.491397)  can0  11A   [8]  11 40 00 AA 80 00 03 BE
 (1743356867.493399)  can0  1DB   [8]  FF A0 B1 AA 00 00 03 9C
 (1743356867.493460)  can0  1DC   [8]  6E 0D AF FD 08 C0 C3 F9
 (1743356867.494077)  can0  1D4   [8]  F7 07 00 00 07 46 00 7B
 (1743356867.494400)  can0  1F2   [8]  10 64 00 00 00 1E 00 0C
 (1743356867.494894)  can0  284   [8]  00 00 00 00 00 00 42 C8
 (1743356867.494925)  can0  50C   [6]  00 00 00 00 5D C8
 (1743356867.495820)  can0  1DA   [8]  B3 64 18 00 00 01 00 F4
 (1743356867.500499)  can0  11A   [8]  11 40 00 AA C0 00 00 73
 (1743356867.503213)  can0  1DB   [8]  FF C0 B1 AA 00 00 00 65
 (1743356867.503692)  can0  1DC   [8]  6E 0D AF FD 0C CC D8 B5
 (1743356867.504442)  can0  1D4   [8]  F7 07 00 00 47 46 00 BC
 (1743356867.505063)  can0  1F2   [8]  10 64 00 00 00 1E 01 0D
 (1743356867.505908)  can0  1DA   [8]  B3 64 18 00 00 01 01 71
 (1743356867.511073)  can0  11A   [8]  11 40 00 55 00 00 01 65
 (1743356867.513654)  can0  1DB   [8]  FF A0 B1 AA 00 00 01 13
 (1743356867.513720)  can0  1DC   [8]  6E 0D AF FD 01 0C D5 6E
 (1743356867.515410)  can0  1D4   [8]  F7 07 00 00 87 46 00 70
 (1743356867.516270)  can0  1F2   [8]  10 64 00 00 00 1E 02 0E
 (1743356867.516300)  can0  284   [8]  00 00 00 00 00 00 43 C9
 (1743356867.516303)  can0  50A   [6]  85 12 A0 11 80 A0
 (1743356867.516441)  can0  1DA   [8]  B3 64 18 00 00 01 02 7B
 (1743356867.520802)  can0  11A   [8]  11 40 00 55 40 00 02 A8
 (1743356867.527999)  can0  1DB   [8]  FF A0 B1 AA 00 00 02 19
 (1743356867.528122)  can0  1DC   [8]  6E 0D AF FD 05 08 C6 B2
 (1743356867.528123)  can0  1D4   [8]  F7 07 00 00 C7 46 00 B7
 (1743356867.528124)  can0  1F2   [8]  10 64 00 00 00 1E 03 0F
 (1743356867.528125)  can0  1DA   [8]  B3 64 18 00 00 01 03 FE
 (1743356867.528996)  can0  380   [8]  02 04 10 21 00 00 00 B0
 (1743356867.529258)  can0  5BF   [8]  00 00 00 00 28 00 00 09
 (1743356867.530822)  can0  11A   [8]  11 40 00 AA 80 00 03 BE
 (1743356867.533126)  can0  1DB   [8]  FF C0 B1 AA 00 00 03 6F
 (1743356867.533431)  can0  1DC   [8]  6E 0D AF FD 08 C0 C3 F9
 (1743356867.533657)  can0  55B   [8]  5C 80 AA 00 E7 80 11 F3
 (1743356867.539579)  can0  1D4   [8]  F7 07 00 00 07 46 00 7B
 (1743356867.540430)  can0  1F2   [8]  10 64 00 00 00 1E 00 0C
 (1743356867.540953)  can0  284   [8]  00 00 00 00 00 00 44 CA
 (1743356867.540987)  can0  50B   [6]  00 00 06 C0 00 60
 (1743356867.540988)  can0  1DA   [8]  B3 64 18 00 00 01 00 F4
 (1743356867.540989)  can0  55A   [8]  00 3E 36 00 5F 3E 5B 08
 (1743356867.540990)  can0  11A   [8]  11 40 00 AA C0 00 00 73
 (1743356867.542714)  can0  54A   [8]  12 00 70 02 00 00 00 2B
 (1743356867.543327)  can0  1DB   [8]  FF C0 B1 AA 00 00 00 65
 (1743356867.543640)  can0  1DC   [8]  6E 0D AF FD 0C CC D8 B5
 (1743356867.543921)  can0  54B   [8]  01 08 80 12 04 00 00 00
 (1743356867.544354)  can0  5BC   [8]  18 40 0C 37 C9 06 23 C0
 (1743356867.544423)  can0  5C0   [8]  40 6E 70 DF C8 0C 00 00
 (1743356867.544691)  can0  54C   [8]  98 66 00 00 00 00 56 00
 (1743356867.545276)  can0  1D4   [8]  F7 07 00 00 47 46 00 BC
 (1743356867.545919)  can0  1F2   [8]  10 64 00 00 00 1E 01 0D
 (1743356867.545966)  can0  54F   [8]  46 01 00 00 07 00 8C 49
 (1743356867.546271)  can0  1DA   [8]  B3 64 18 00 00 01 01 71
 (1743356867.551301)  can0  11A   [8]  11 40 00 55 00 00 01 65
 (1743356867.553323)  can0  1DB   [8]  FF E0 B1 AA 00 00 01 B1
 (1743356867.553397)  can0  1DC   [8]  6E 0D AF FD 01 0C D5 6E
 (1743356867.555870)  can0  1D4   [8]  F7 07 00 00 87 46 00 70
 (1743356867.555907)  can0  1F2   [8]  10 64 00 00 00 1E 02 0E
 (1743356867.556113)  can0  1DA   [8]  B3 64 18 00 00 01 02 7B
 (1743356867.556428)  can0  284   [8]  00 00 00 00 00 00 45 CB
 (1743356867.561268)  can0  11A   [8]  11 40 00 55 40 00 02 A8
 (1743356867.563008)  can0  1DB   [8]  FF C0 B1 AA 00 00 02 EA
 (1743356867.563279)  can0  1DC   [8]  6E 0D AF FD 05 08 C6 B2
 (1743356867.565849)  can0  1D4   [8]  F7 07 00 00 C7 46 00 B7
 (1743356867.566277)  can0  1DA   [8]  B3 64 18 00 00 01 03 FE
 (1743356867.566332)  can0  1F2   [8]  10 64 00 00 00 1E 03 0F
 (1743356867.571273)  can0  11A   [8]  11 40 00 AA 80 00 03 BE
 (1743356867.573602)  can0  1DB   [8]  FF C0 B1 AA 00 00 03 6F
 (1743356867.573681)  can0  1DC   [8]  6E 0D AF FD 08 C0 C3 F9
 (1743356867.576847)  can0  1DA   [8]  B3 64 18 00 00 01 00 F4
 (1743356867.576939)  can0  1D4   [8]  F7 07 00 00 07 46 00 7B
 (1743356867.576942)  can0  1F2   [8]  10 64 00 00 00 1E 00 0C
 (1743356867.576943)  can0  284   [8]  00 00 00 00 00 00 46 CC
 (1743356867.580610)  can0  11A   [8]  11 40 00 AA C0 00 00 73
 (1743356867.583602)  can0  1DB   [8]  FF E0 B1 AA 00 00 00 34
 (1743356867.583663)  can0  1DC   [8]  6E 0D AF FD 0C CC D8 B5
 (1743356867.586211)  can0  1DA   [8]  B3 64 18 00 00 01 01 71
 (1743356867.587200)  can0  1D4   [8]  F7 07 00 00 47 46 00 BC
 (1743356867.587256)  can0  1F2   [8]  10 64 00 00 00 1E 01 0D
 (1743356867.587277)  can0  56E   [1]  46
 (1743356867.591328)  can0  11A   [8]  11 40 00 55 00 00 01 65
 (1743356867.593312)  can0  1DB   [8]  FF E0 B1 AA 00 00 01 B1
 (1743356867.593373)  can0  1DC   [8]  6E 0D AF FD 01 0C D5 6E
 (1743356867.596218)  can0  1DA   [8]  B3 64 18 00 00 01 02 7B
 (1743356867.597767)  can0  1D4   [8]  F7 07 00 00 87 46 00 70
 (1743356867.597848)  can0  1F2   [8]  10 64 00 00 00 1E 02 0E
 (1743356867.597851)  can0  284   [8]  00 00 00 00 00 00 47 CD
 (1743356867.597853)  can0  50C   [6]  00 00 00 01 5D 5F
 (1743356867.601066)  can0  11A   [8]  11 40 00 55 40 00 02 A8
 (1743356867.603621)  can0  1DB   [8]  FF E0 B1 AA 00 00 02 BB
 (1743356867.603690)  can0  1DC   [8]  6E 0D AF FD 05 08 C6 B2
 (1743356867.606183)  can0  1DA   [8]  B3 64 18 00 00 01 03 FE
 (1743356867.606858)  can0  1D4   [8]  F7 07 00 00 C7 46 00 B7
 (1743356867.607582)  can0  1F2   [8]  10 64 00 00 00 1E 03 0F
 (1743356867.607608)  can0  5A9   [8]  80 09 10 09 42 40 00 00
 (1743356867.611124)  can0  11A   [8]  11 40 00 AA 80 00 03 BE
 (1743356867.613172)  can0  1DB   [8]  FF E0 B1 AA 00 00 03 3E
 (1743356867.613672)  can0  1DC   [8]  6E 0D AF FD 08 C0 C3 F9
 (1743356867.616192)  can0  1DA   [8]  B3 64 18 00 00 01 00 F4
 (1743356867.617207)  can0  1D4   [8]  F7 07 00 00 07 46 00 7B
 (1743356867.618773)  can0  1F2   [8]  10 64 00 00 00 1E 00 0C
 (1743356867.618797)  can0  284   [8]  00 00 00 00 00 00 48 CE
 (1743356867.618874)  can0  50A   [6]  85 32 A0 11 80 A0
 (1743356867.620333)  can0  11A   [8]  11 40 00 AA C0 00 00 73
 (1743356867.623265)  can0  1DB   [8]  FF E0 B1 AA 00 00 00 34
 (1743356867.623775)  can0  1DC   [8]  6E 0D AF FD 0C CC D8 B5
 (1743356867.626106)  can0  1DA   [8]  B3 64 18 00 00 01 01 71
 (1743356867.627869)  can0  1D4   [8]  F7 07 00 00 47 46 00 BC
 (1743356867.627983)  can0  1F2   [8]  10 64 00 00 00 1E 01 0D
 (1743356867.629193)  can0  380   [8]  02 04 10 21 00 00 00 8D
 (1743356867.629725)  can0  5BF   [8]  00 00 00 00 28 00 00 1A
 (1743356867.630838)  can0  11A   [8]  11 40 00 55 00 00 01 65
 (1743356867.633368)  can0  1DB   [8]  FF E0 B1 AA 00 00 01 B1
 (1743356867.633910)  can0  1DC   [8]  6E 0D AF FD 01 0C D5 6E
 (1743356867.633954)  can0  55B   [8]  5C 80 AA 00 E7 80 12 F9
 (1743356867.635738)  can0  1DA   [8]  B3 64 18 00 00 01 02 7B
 (1743356867.636032)  can0  55A   [8]  00 3E 36 00 5F 3E 5B 08
 (1743356867.637588)  can0  1D4   [8]  F7 07 00 00 87 46 00 70
 (1743356867.638420)  can0  1F2   [8]  10 64 00 00 00 1E 02 0E
 (1743356867.638455)  can0  284   [8]  00 00 00 00 00 00 49 CF
 (1743356867.638457)  can0  50B   [6]  00 00 06 C0 00 60
 (1743356867.640614)  can0  11A   [8]  11 40 00 55 40 00 02 A8
 (1743356867.642899)  can0  54A   [8]  A0 00 70 02 00 00 00 2B
 (1743356867.643706)  can0  1DB   [8]  FF E0 B1 AA 00 00 02 BB
 (1743356867.643742)  can0  1DC   [8]  6E 0D AF FD 05 08 C6 B2
 (1743356867.644108)  can0  54B   [8]  01 08 80 12 04 00 00 00
 (1743356867.644800)  can0  54C   [8]  98 66 00 00 00 00 56 00
 (1743356867.645820)  can0  54F   [8]  46 01 00 00 07 40 8C 49
 (1743356867.646396)  can0  1DA   [8]  B3 64 18 00 00 01 03 FE
 (1743356867.648389)  can0  1D4   [8]  F7 07 00 00 C7 46 00 B7
 (1743356867.648546)  can0  1F2   [8]  10 64 00 00 00 1E 03 0F
 (1743356867.651033)  can0  11A   [8]  11 40 00 AA 80 00 03 BE
 (1743356867.653151)  can0  1DB   [8]  FF E0 B1 AA 00 00 03 3E
 (1743356867.653650)  can0  1DC   [8]  6E 0D AF FD 08 C0 C3 F9
 (1743356867.655994)  can0  1DA   [8]  B3 64 18 00 00 01 00 F4
 (1743356867.658439)  can0  1D4   [8]  F7 07 00 00 07 46 00 7B
 (1743356867.658875)  can0  1F2   [8]  10 64 00 00 00 1E 00 0C
 (1743356867.658908)  can0  284   [8]  00 00 00 00 00 00 4A D0
 (1743356867.660425)  can0  11A   [8]  11 40 00 AA C0 00 00 73
 (1743356867.663588)  can0  1DB   [8]  FF E0 B1 AA 00 00 00 34
 (1743356867.663656)  can0  1DC   [8]  6E 0D AF FD 0C CC D8 B5
 (1743356867.666097)  can0  1DA   [8]  B3 64 18 00 00 01 01 71
 (1743356867.668363)  can0  1D4   [8]  F7 07 00 00 47 46 00 BC
 (1743356867.669009)  can0  1F2   [8]  10 64 00 00 00 1E 01 0D
 (1743356867.671084)  can0  11A   [8]  11 40 00 55 00 00 01 65
 (1743356867.673453)  can0  1DB   [8]  FF E0 B1 AA 00 00 01 B1
 (1743356867.673551)  can0  1DC   [8]  6E 0D AF FD 01 0C D5 6E
 (1743356867.675980)  can0  1DA   [8]  B3 64 18 00 00 01 02 7B
 (1743356867.679028)  can0  1D4   [8]  F7 07 00 00 87 46 00 70
 (1743356867.679092)  can0  1F2   [8]  10 64 00 00 00 1E 02 0E
 (1743356867.679786)  can0  284   [8]  00 00 00 00 00 00 4B D1
 (1743356867.679845)  can0  5B9   [5]  11 86 63 C0 28
 (1743356867.680727)  can0  11A   [8]  11 40 00 55 40 00 02 A8
 (1743356867.683157)  can0  1DB   [8]  FF E0 B1 AA 00 00 02 BB
 (1743356867.683729)  can0  1DC   [8]  6E 0D AF FD 05 08 C6 B2
 (1743356867.685982)  can0  1DA   [8]  B3 64 18 00 00 01 03 FE
 (1743356867.689816)  can0  1D4   [8]  F7 07 00 00 C7 46 00 B7
 (1743356867.690142)  can0  1F2   [8]  10 64 00 00 00 1E 03 0F
 (1743356867.690147)  can0  56E   [1]  46
 (1743356867.691633)  can0  11A   [8]  11 40 00 AA 80 00 03 BE
 (1743356867.693752)  can0  1DB   [8]  FF E0 B1 AA 00 00 03 3E
 (1743356867.693811)  can0  1DC   [8]  6E 0D AF FD 08 C0 C3 F9
 (1743356867.696084)  can0  1DA   [8]  B3 64 18 00 00 01 00 F4
 (1743356867.699504)  can0  1D4   [8]  F7 07 00 00 07 46 00 7B
 (1743356867.699571)  can0  1F2   [8]  10 64 00 00 00 1E 00 0C
 (1743356867.700140)  can0  284   [8]  00 00 00 00 00 00 4C D2
 (1743356867.700558)  can0  50C   [6]  00 00 00 02 5D 63
 (1743356867.700759)  can0  11A   [8]  11 40 00 AA C0 00 00 73
 (1743356867.703176)  can0  1DB   [8]  FF E0 B1 AA 00 00 00 34
 (1743356867.703727)  can0  1DC   [8]  6E 0D AF FD 0C CC D8 B5
 (1743356867.705984)  can0  1DA   [8]  B3 64 18 00 00 01 01 71
 (1743356867.710690)  can0  1D4   [8]  F7 07 00 00 47 46 00 BC
 (1743356867.710927)  can0  1F2   [8]  10 64 00 00 00 1E 01 0D
 (1743356867.711913)  can0  11A   [8]  11 40 00 55 00 00 01 65
 (1743356867.714371)  can0  1DB   [8]  FF E0 B1 AA 00 00 01 B1
 (1743356867.714511)  can0  1DC   [8]  6E 0D AF FD 01 0C D5 6E
 (1743356867.716100)  can0  1DA   [8]  B3 64 18 00 00 01 02 7B
 (1743356867.720428)  can0  1D4   [8]  F7 07 00 00 87 46 00 70
 (1743356867.720531)  can0  1F2   [8]  10 64 00 00 00 1E 02 0E
 (1743356867.721051)  can0  284   [8]  00 00 00 00 00 00 4D D3
 (1743356867.721076)  can0  50A   [6]  85 52 A0 11 80 A0
 (1743356867.721191)  can0  11A   [8]  11 40 00 55 40 00 02 A8
 (1743356867.723126)  can0  1DB   [8]  FF E0 B1 AA 00 00 02 BB
 (1743356867.723573)  can0  1DC   [8]  6E 0D AF FD 05 08 C6 B2
 (1743356867.726482)  can0  1DA   [8]  B3 64 18 00 00 01 03 FE
 (1743356867.729727)  can0  380   [8]  02 04 10 21 00 00 00 9E
 (1743356867.729791)  can0  5BF   [8]  00 00 00 00 28 00 00 2B
 (1743356867.730586)  can0  1D4   [8]  F7 07 00 00 C7 46 00 B7
 (1743356867.730685)  can0  1F2   [8]  10 64 00 00 00 1E 03 0F
 (1743356867.731187)  can0  11A   [8]  11 40 00 AA 80 00 03 BE
 (1743356867.733373)  can0  1DB   [8]  FF E0 B1 AA 00 00 03 3E
 (1743356867.734092)  can0  1DC   [8]  6E 0D AF FD 08 C0 C3 F9
 (1743356867.734184)  can0  55B   [8]  5C 80 55 00 E7 80 13 3B
 (1743356867.735964)  can0  1DA   [8]  B3 64 18 00 00 01 00 F4
 (1743356867.736759)  can0  55A   [8]  00 3E 36 00 5F 3E 5B 08
 (1743356867.740975)  can0  1D4   [8]  F7 07 00 00 07 46 00 7B
 (1743356867.741060)  can0  11A   [8]  11 40 00 AA C0 00 00 73
 (1743356867.741206)  can0  1F2   [8]  10 64 00 00 00 1E 00 0C
 (1743356867.741210)  can0  284   [8]  00 00 00 00 00 00 4E D4
 (1743356867.741212)  can0  50B   [6]  00 00 06 C0 00 60
 (1743356867.743624)  can0  54A   [8]  12 00 70 02 00 00 00 2B
 (1743356867.743851)  can0  1DB   [8]  FF E0 B1 AA 00 00 00 34
 (1743356867.744115)  can0  1DC   [8]  6E 0D AF FD 0C CC D8 B5
 (1743356867.744167)  can0  54B   [8]  01 08 80 12 04 00 00 00
 (1743356867.744995)  can0  54C   [8]  98 66 00 00 00 00 56 00
 (1743356867.745878)  can0  54F   [8]  46 01 00 00 07 80 8C 49
 (1743356867.746381)  can0  1DA   [8]  B3 64 18 00 00 01 01 71
 (1743356867.750674)  can0  1D4   [8]  F7 07 00 00 47 46 00 BC
 (1743356867.751230)  can0  1F2   [8]  10 64 00 00 00 1E 01 0D
 (1743356867.751253)  can0  11A   [8]  11 40 00 55 00 00 01 65
 (1743356867.753148)  can0  1DB   [8]  FF E0 B1 AA 00 00 01 B1
 (1743356867.753720)  can0  1DC   [8]  6E 0D AF FD 01 0C D5 6E
 (1743356867.756251)  can0  1DA   [8]  B3 64 18 00 00 01 02 7B
 (1743356867.762395)  can0  1D4   [8]  F7 07 00 00 87 46 00 70
 (1743356867.762488)  can0  11A   [8]  11 40 00 55 40 00 02 A8
 (1743356867.762491)  can0  1F2   [8]  10 64 00 00 00 1E 02 0E
 (1743356867.762492)  can0  284   [8]  00 00 00 00 00 00 4F D5
 (1743356867.763811)  can0  1DB   [8]  FF E0 B1 AA 00 00 02 BB
 (1743356867.763871)  can0  1DC   [8]  6E 0D AF FD 05 08 C6 B2
 (1743356867.765966)  can0  1DA   [8]  B3 64 18 00 00 01 03 FE
 (1743356867.771109)  can0  1D4   [8]  F7 07 00 00 C7 46 00 B7
 (1743356867.771764)  can0  1F2   [8]  10 64 00 00 00 1E 03 0F
 (1743356867.771830)  can0  11A   [8]  11 40 00 AA 80 00 03 BE
 (1743356867.771831)  can0  284   [8]  00 00 00 00 00 00 50 D6
 (1743356867.773534)  can0  1DB   [8]  FF E0 B1 AA 00 00 03 3E
 (1743356867.773596)  can0  1DC   [8]  6E 0D AF FD 08 C0 C3 F9
 (1743356867.775971)  can0  1DA   [8]  B3 64 18 00 00 01 00 F4
 (1743356867.780362)  can0  11A   [8]  11 40 00 AA C0 00 00 73
 (1743356867.781025)  can0  1D4   [8]  F7 07 00 00 07 46 00 7B
 (1743356867.781595)  can0  1F2   [8]  10 64 00 00 00 1E 00 0C
 (1743356867.783126)  can0  1DB   [8]  FF E0 B1 AA 00 00 00 34
 (1743356867.784071)  can0  1DC   [8]  6E 0D AF FD 0C CC D8 B5
 (1743356867.786587)  can0  1DA   [8]  B3 64 18 00 00 01 01 71
 (1743356867.792485)  can0  11A   [8]  11 40 00 55 00 00 01 65
 (1743356867.792646)  can0  56E   [1]  46
 (1743356867.792652)  can0  1D4   [8]  F7 07 00 00 47 46 00 BC
 (1743356867.792740)  can0  1F2   [8]  10 64 00 00 00 1E 01 0D
 (1743356867.792747)  can0  284   [8]  00 00 00 00 00 00 51 D7
 (1743356867.794167)  can0  1DB   [8]  FF E0 B1 AA 00 00 01 B1
 (1743356867.794324)  can0  1DC   [8]  6E 0D AF FD 01 0C D5 6E
 (1743356867.796079)  can0  1DA   [8]  B3 64 18 00 00 01 02 7B
 (1743356867.801968)  can0  11A   [8]  11 40 00 55 40 00 02 A8
 (1743356867.802237)  can0  1D4   [8]  F7 07 00 00 87 46 00 70
 (1743356867.802271)  can0  1F2   [8]  10 64 00 00 00 1E 02 0E
 (1743356867.802273)  can0  50C   [6]  00 00 00 03 B2 9A
 (1743356867.803361)  can0  1DB   [8]  FF E0 B1 AA 00 00 02 BB
 (1743356867.803408)  can0  1DC   [8]  6E 0D AF FD 05 08 C6 B2
 (1743356867.805753)  can0  1DA   [8]  B3 64 18 00 00 01 03 FE
 (1743356867.811159)  can0  11A   [8]  11 40 00 AA 80 00 03 BE
 (1743356867.812520)  can0  1D4   [8]  F7 07 00 00 C7 46 00 B7
 (1743356867.812598)  can0  1F2   [8]  10 64 00 00 00 1E 03 0F
 (1743356867.812601)  can0  284   [8]  00 00 00 00 00 00 52 D8
 (1743356867.813154)  can0  1DB   [8]  FF E0 B1 AA 00 00 03 3E
 (1743356867.813555)  can0  1DC   [8]  6E 0D AF FD 08 C0 C3 F9
 (1743356867.815828)  can0  1DA   [8]  B3 64 18 00 00 01 00 F4
 (1743356867.820521)  can0  11A   [8]  11 40 00 AA C0 00 00 73
 (1743356867.822471)  can0  1D4   [8]  F7 07 00 00 07 46 00 7B
 (1743356867.822625)  can0  1F2   [8]  10 64 00 00 00 1E 00 0C
 (1743356867.822629)  can0  50A   [6]  85 72 A0 11 80 A0
 (1743356867.823111)  can0  1DB   [8]  FF E0 B1 AA 00 00 00 34
 (1743356867.823442)  can0  1DC   [8]  6E 0D AF FD 0C CC D8 B5
 (1743356867.826120)  can0  1DA   [8]  B3 64 18 00 00 01 01 71
 (1743356867.829667)  can0  380   [8]  02 04 10 21 00 00 00 AF
 (1743356867.829711)  can0  5BF   [8]  00 00 00 00 28 00 00 3C
 (1743356867.831033)  can0  11A   [8]  11 40 00 55 00 00 01 65
 (1743356867.832541)  can0  1D4   [8]  F7 07 00 00 47 46 00 BC
 (1743356867.832730)  can0  1F2   [8]  10 64 00 00 00 1E 01 0D
 (1743356867.832903)  can0  284   [8]  00 00 00 00 00 00 53 D9
 (1743356867.833573)  can0  1DB   [8]  FF C0 B1 AA 00 00 01 E0
 (1743356867.833613)  can0  1DC   [8]  6E 0D AF FD 01 0C D5 6E
 (1743356867.833917)  can0  55B   [8]  5C 80 55 00 E7 80 10 31
 (1743356867.835876)  can0  1DA   [8]  B3 64 18 00 00 01 02 7B
 (1743356867.836228)  can0  55A   [8]  00 3E 36 00 5F 3E 5B 08
 (1743356867.840745)  can0  11A   [8]  11 40 00 55 40 00 02 A8
 (1743356867.848226)  can0  1D4   [8]  F7 07 00 00 87 46 00 70
 (1743356867.848306)  can0  1F2   [8]  10 64 00 00 00 1E 02 0E
 (1743356867.848307)  can0  50B   [6]  00 00 06 C0 00 60
 (1743356867.848308)  can0  1DB   [8]  FF C0 B1 AA 00 00 02 EA
 (1743356867.848310)  can0  1DC   [8]  6E 0D AF FD 05 08 C6 B2
 (1743356867.848310)  can0  54A   [8]  A0 00 70 02 00 00 00 2B
 (1743356867.848311)  can0  54B   [8]  01 08 80 12 04 00 00 00
 (1743356867.848312)  can0  1DA   [8]  B3 64 18 00 00 01 03 FE
 (1743356867.849444)  can0  54C   [8]  98 66 00 00 00 00 56 00
 (1743356867.849476)  can0  54F   [8]  46 01 00 00 07 C0 8C 49
 (1743356867.851136)  can0  11A   [8]  11 40 00 AA 80 00 03 BE
 (1743356867.852556)  can0  1D4   [8]  F7 07 00 00 C7 46 00 B7
 (1743356867.853074)  can0  1F2   [8]  10 64 00 00 00 1E 03 0F
 (1743356867.853159)  can0  1DB   [8]  FF C0 B1 AA 00 00 03 6F
 (1743356867.853636)  can0  1DC   [8]  6E 0D AF FD 08 C0 C3 F9
 (1743356867.853667)  can0  284   [8]  00 00 00 00 00 00 54 DA
 (1743356867.855878)  can0  1DA   [8]  B3 64 18 00 00 01 00 F4
 (1743356867.860655)  can0  11A   [8]  11 40 00 AA C0 00 00 73
 (1743356867.862842)  can0  1D4   [8]  F7 07 00 00 07 46 00 7B
 (1743356867.863142)  can0  1DB   [8]  FF C0 B1 AA 00 00 00 65
 (1743356867.863811)  can0  1DC   [8]  6E 0D AF FD 0C CC D8 B5
 (1743356867.863848)  can0  1F2   [8]  10 64 00 00 00 1E 00 0C
 (1743356867.865913)  can0  1DA   [8]  B3 64 18 00 00 01 01 71
 (1743356867.871117)  can0  11A   [8]  11 40 00 55 00 00 01 65
 (1743356867.873042)  can0  1DB   [8]  FF C0 B1 AA 00 00 01 E0
 (1743356867.873273)  can0  1D4   [8]  F7 07 00 00 47 46 00 BC
 (1743356867.873487)  can0  1DC   [8]  6E 0D AF FD 01 0C D5 6E
 (1743356867.873695)  can0  1F2   [8]  10 64 00 00 00 1E 01 0D
 (1743356867.873894)  can0  284   [8]  00 00 00 00 00 00 55 DB
 (1743356867.875884)  can0  1DA   [8]  B3 64 18 00 00 01 02 7B
 (1743356867.881242)  can0  11A   [8]  11 40 00 55 40 00 02 A8
 (1743356867.883086)  can0  1DB   [8]  FF C0 B1 AA 00 00 02 EA
 (1743356867.883594)  can0  1DC   [8]  6E 0D AF FD 05 08 C6 B2
 (1743356867.883619)  can0  1D4   [8]  F7 07 00 00 87 46 00 70
 (1743356867.883841)  can0  1F2   [8]  10 64 00 00 00 1E 02 0E
 (1743356867.885885)  can0  1DA   [8]  B3 64 18 00 00 01 03 FE
 (1743356867.891165)  can0  11A   [8]  11 40 00 AA 80 00 03 BE
 (1743356867.893003)  can0  56E   [1]  46
 (1743356867.894290)  can0  1DB   [8]  FF C0 B1 AA 00 00 03 6F
 (1743356867.894330)  can0  1DC   [8]  6E 0D AF FD 08 C0 C3 F9
 (1743356867.894341)  can0  1D4   [8]  F7 07 00 00 C7 46 00 B7
 (1743356867.894343)  can0  1F2   [8]  10 64 00 00 00 1E 03 0F
 (1743356867.894399)  can0  284   [8]  00 00 00 00 00 00 56 DC
 (1743356867.895866)  can0  1DA   [8]  B3 64 18 00 00 01 00 F4
 (1743356867.900377)  can0  11A   [8]  11 40 00 AA C0 00 00 73
 (1743356867.903572)  can0  1DB   [8]  FF C0 B1 AA 00 00 00 65
 (1743356867.903615)  can0  1DC   [8]  6E 0D AF FD 0C CC D8 B5
 (1743356867.904561)  can0  1D4   [8]  F7 07 00 00 07 46 00 7B
 (1743356867.904622)  can0  1F2   [8]  10 64 00 00 00 1E 00 0C
 (1743356867.904624)  can0  50C   [6]  00 00 00 00 B2 A6
 (1743356867.905815)  can0  1DA   [8]  B3 64 18 00 00 01 01 71
 (1743356867.910942)  can0  11A   [8]  11 40 00 55 00 00 01 65
 (1743356867.913228)  can0  1DB   [8]  FF C0 B1 AA 00 00 01 E0
 (1743356867.913903)  can0  1DC   [8]  6E 0D AF FD 01 0C D5 6E
 (1743356867.914809)  can0  1D4   [8]  F7 07 00 00 47 46 00 BC
 (1743356867.914846)  can0  1F2   [8]  10 64 00 00 00 1E 01 0D
 (1743356867.914957)  can0  284   [8]  00 00 00 00 00 00 57 DD
 (1743356867.915828)  can0  1DA   [8]  B3 64 18 00 00 01 02 7B
 (1743356867.920741)  can0  11A   [8]  11 40 00 55 40 00 02 A8
 (1743356867.923356)  can0  1DB   [8]  FF A0 B1 AA 00 00 02 19
 (1743356867.923432)  can0  1DC   [8]  6E 0D AF FD 05 08 C6 B2
 (1743356867.924291)  can0  1D4   [8]  F7 07 00 00 87 46 00 70
 (1743356867.924853)  can0  1F2   [8]  10 64 00 00 00 1E 02 0E
 (1743356867.925004)  can0  50A   [6]  85 12 A0 11 80 A0
 (1743356867.925958)  can0  1DA   [8]  B3 64 18 00 00 01 03 FE
 (1743356867.929771)  can0  380   [8]  02 04 10 21 00 00 00 B0
 (1743356867.929837)  can0  5BF   [8]  00 00 00 00 28 00 00 09
 (1743356867.930984)  can0  11A   [8]  11 40 00 AA 80 00 03 BE
 (1743356867.933202)  can0  1DB   [8]  FF A0 B1 AA 00 00 03 9C
 (1743356867.933862)  can0  1DC   [8]  6E 0D AF FD 08 C0 C3 F9
 (1743356867.933934)  can0  55B   [8]  5C 80 55 00 E7 80 11 B4
 (1743356867.934523)  can0  1D4   [8]  F7 07 00 00 C7 46 00 B7
 (1743356867.935191)  can0  1F2   [8]  10 64 00 00 00 1E 03 0F
 (1743356867.935235)  can0  284   [8]  00 00 00 00 00 00 58 DE
 (1743356867.935783)  can0  1DA   [8]  B3 64 18 00 00 01 00 F4
 (1743356867.936243)  can0  55A   [8]  00 3E 36 00 5F 3E 5B 08
 (1743356867.940256)  can0  11A   [8]  11 40 00 AA C0 00 00 73
 (1743356867.943484)  can0  54A   [8]  12 00 70 02 00 00 00 2B
 (1743356867.943612)  can0  1DB   [8]  FF A0 B1 AA 00 00 00 96
 (1743356867.944553)  can0  1DC   [8]  6E 0D AF FD 0C CC D8 B5
 (1743356867.944594)  can0  54B   [8]  01 08 80 12 04 00 00 00
 (1743356867.945581)  can0  1D4   [8]  F7 07 00 00 07 46 00 7B
 (1743356867.946212)  can0  1F2   [8]  10 64 00 00 00 1E 00 0C
 (1743356867.946255)  can0  50B   [6]  00 00 06 C0 00 60
 (1743356867.946257)  can0  54C   [8]  98 66 00 00 00 00 56 00
 (1743356867.946353)  can0  1DA   [8]  B3 64 18 00 00 01 01 71
 (1743356867.946357)  can0  54F   [8]  46 01 00 00 07 00 8C 49
 (1743356867.950948)  can0  11A   [8]  11 40 00 55 00 00 01 65
 (1743356867.953009)  can0  1DB   [8]  FF A0 B1 AA 00 00 01 13
 (1743356867.953410)  can0  1DC   [8]  6E 0D AF FD 01 0C D5 6E
 (1743356867.956086)  can0  1D4   [8]  F7 07 00 00 47 46 00 BC
 (1743356867.956125)  can0  1F2   [8]  10 64 00 00 00 1E 01 0D
 (1743356867.956126)  can0  284   [8]  00 00 00 00 00 00 59 DF
 (1743356867.956127)  can0  1DA   [8]  B3 64 18 00 00 01 02 7B
 (1743356867.961767)  can0  11A   [8]  11 40 00 55 40 00 02 A8
 (1743356867.963910)  can0  1DB   [8]  FF A0 B1 AA 00 00 02 19
 (1743356867.963964)  can0  1DC   [8]  6E 0D AF FD 05 08 C6 B2
 (1743356867.965509)  can0  1D4   [8]  F7 07 00 00 87 46 00 70
 (1743356867.965617)  can0  1F2   [8]  10 64 00 00 00 1E 02 0E
 (1743356867.966017)  can0  1DA   [8]  B3 64 18 00 00 01 03 FE
 (1743356867.971104)  can0  11A   [8]  11 40 00 AA 80 00 03 BE
 (1743356867.973301)  can0  1DB   [8]  FF A0 B1 AA 00 00 03 9C
 (1743356867.973338)  can0  1DC   [8]  6E 0D AF FD 08 C0 C3 F9
 (1743356867.975404)  can0  1D4   [8]  F7 07 00 00 C7 46 00 B7
 (1743356867.975645)  can0  1F2   [8]  10 64 00 00 00 1E 03 0F
 (1743356867.975838)  can0  1DA   [8]  B3 64 18 00 00 01 00 F4
 (1743356867.976065)  can0  284   [8]  00 00 00 00 00 00 5A E0
 (1743356867.980238)  can0  11A   [8]  11 40 00 AA C0 00 00 73
 (1743356867.984657)  can0  1DB   [8]  FF A0 B1 AA 00 00 00 96
 (1743356867.984874)  can0  1DC   [8]  6E 0D AF FD 0C CC D8 B5
 (1743356867.986203)  can0  1D4   [8]  F7 07 00 00 07 46 00 7B
 (1743356867.987628)  can0  1DA   [8]  B3 64 18 00 00 01 01 71
 (1743356867.987671)  can0  1F2   [8]  10 64 00 00 00 1E 00 0C
 (1743356867.991098)  can0  11A   [8]  11 40 00 55 00 00 01 65
 (1743356867.993180)  can0  1DB   [8]  FF A0 B1 AA 00 00 01 13
 (1743356867.993211)  can0  1DC   [8]  6E 0D AF FD 01 0C D5 6E
 (1743356867.994765)  can0  56E   [1]  46
 (1743356867.995686)  can0  1DA   [8]  B3 64 18 00 00 01 02 7B
 (1743356867.995957)  can0  1D4   [8]  F7 07 00 00 47 46 00 BC
 (1743356867.996206)  can0  1F2   [8]  10 64 00 00 00 1E 01 0D
 (1743356867.996479)  can0  284   [8]  00 00 00 00 00 00 5B E1
 (1743356868.000900)  can0  11A   [8]  11 40 00 55 40 00 02 A8
 (1743356868.003119)  can0  1DB   [8]  FF C0 B1 AA 00 00 02 EA
 (1743356868.003521)  can0  1DC   [8]  6E 0D AF FD 05 08 C6 B2
 (1743356868.005775)  can0  1DA   [8]  B3 64 18 00 00 01 03 FE
 (1743356868.006222)  can0  1D4   [8]  F7 07 00 00 87 46 00 70
 (1743356868.006816)  can0  1F2   [8]  10 64 00 00 00 1E 02 0E
 (1743356868.006970)  can0  50C   [6]  00 00 00 01 B2 31
 (1743356868.010937)  can0  11A   [8]  11 40 00 AA 80 00 03 BE
 (1743356868.013039)  can0  1DB   [8]  FF C0 B1 AA 00 00 03 6F
 (1743356868.013364)  can0  1DC   [8]  6E 0D AF FD 08 C0 C3 F9
 (1743356868.015939)  can0  1DA   [8]  B3 64 18 00 00 01 00 F4
 (1743356868.016560)  can0  1D4   [8]  F7 07 00 00 C7 46 00 B7
 (1743356868.017350)  can0  1F2   [8]  10 64 00 00 00 1E 03 0F
 (1743356868.017387)  can0  284   [8]  00 00 00 00 00 00 5C E2
 (1743356868.020251)  can0  11A   [8]  11 40 00 AA C0 00 00 73
 (1743356868.023366)  can0  1DB   [8]  FF C0 B1 AA 00 00 00 65
 (1743356868.023445)  can0  1DC   [8]  6E 0D AF FD 0C CC D8 B5
 (1743356868.025929)  can0  1DA   [8]  B3 64 18 00 00 01 01 71
 (1743356868.027073)  can0  1D4   [8]  F7 07 00 00 07 46 00 7B
 (1743356868.027218)  can0  1F2   [8]  10 64 00 00 00 1E 00 0C
 (1743356868.027302)  can0  50A   [6]  85 32 A0 11 80 A0
 (1743356868.029406)  can0  380   [8]  02 04 10 21 00 00 00 8D
 (1743356868.029789)  can0  5BF   [8]  00 00 00 00 28 00 00 1A
 (1743356868.030828)  can0  11A   [8]  11 40 00 55 00 00 01 65
 (1743356868.033250)  can0  1DB   [8]  FF C0 B1 AA 00 00 01 E0
 (1743356868.033873)  can0  1DC   [8]  6E 0D AF FD 01 0C D5 6E
 (1743356868.033938)  can0  55B   [8]  5C 80 55 00 E7 80 12 BE
 (1743356868.035715)  can0  1DA   [8]  B3 64 18 00 00 01 02 7B
 (1743356868.036032)  can0  55A   [8]  00 3E 36 00 5F 3E 5B 08
 (1743356868.037046)  can0  1D4   [8]  F7 07 00 00 47 46 00 BC
 (1743356868.037572)  can0  1F2   [8]  10 64 00 00 00 1E 01 0D
 (1743356868.037617)  can0  284   [8]  00 00 00 00 00 00 5D E3
 (1743356868.041021)  can0  11A   [8]  11 40 00 55 40 00 02 A8
 (1743356868.043144)  can0  54A   [8]  A0 00 70 02 00 00 00 2B
 (1743356868.044317)  can0  1DB   [8]  FF C0 B1 AA 00 00 02 EA
 (1743356868.044394)  can0  1DC   [8]  6E 0D AF FD 05 08 C6 B2
 (1743356868.044785)  can0  5BC   [8]  18 40 04 37 C8 06 43 0C
 (1743356868.044833)  can0  54B   [8]  01 08 80 12 04 00 00 00
 (1743356868.044835)  can0  5C0   [8]  80 6C 6E DF C8 C8 00 00
 (1743356868.045248)  can0  54C   [8]  98 66 00 00 00 00 56 00
 (1743356868.045894)  can0  1DA   [8]  B3 64 18 00 00 01 03 FE
 (1743356868.046483)  can0  54F   [8]  46 01 00 00 07 40 8C 49
 (1743356868.047327)  can0  1D4   [8]  F7 07 00 00 87 46 00 70
 (1743356868.047966)  can0  1F2   [8]  10 64 00 00 00 1E 02 0E
 (1743356868.048036)  can0  50B   [6]  00 00 06 C0 00 60
 (1743356868.050987)  can0  11A   [8]  11 40 00 AA 80 00 03 BE
 (1743356868.053120)  can0  1DB   [8]  FF E0 B1 AA 00 00 03 3E
 (1743356868.053690)  can0  1DC   [8]  6E 0D AF FD 08 C0 C3 F9
 (1743356868.055863)  can0  1DA   [8]  B3 64 18 00 00 01 00 F4
 (1743356868.058596)  can0  1D4   [8]  F7 07 00 00 C7 46 00 B7
 (1743356868.058681)  can0  1F2   [8]  10 64 00 00 00 1E 03 0F
 (1743356868.058683)  can0  284   [8]  00 00 00 00 00 00 5E E4
 (1743356868.060323)  can0  11A   [8]  11 40 00 AA C0 00 00 73
 (1743356868.063075)  can0  1DB   [8]  FF E0 B1 AA 00 00 00 34
 (1743356868.063631)  can0  1DC   [8]  6E 0D AF FD 0C CC D8 B5
 (1743356868.065924)  can0  1DA   [8]  B3 64 18 00 00 01 01 71
 (1743356868.067803)  can0  1D4   [8]  F7 07 00 00 07 46 00 7B
 (1743356868.068412)  can0  1F2   [8]  10 64 00 00 00 1E 00 0C
 (1743356868.071184)  can0  11A   [8]  11 40 00 55 00 00 01 65
 (1743356868.073712)  can0  1DB   [8]  FF E0 B1 AA 00 00 01 B1
 (1743356868.073783)  can0  1DC   [8]  6E 0D AF FD 01 0C D5 6E
 (1743356868.075913)  can0  1DA   [8]  B3 64 18 00 00 01 02 7B
 (1743356868.078678)  can0  1D4   [8]  F7 07 00 00 47 46 00 BC
 (1743356868.078750)  can0  1F2   [8]  10 64 00 00 00 1E 01 0D
 (1743356868.078778)  can0  284   [8]  00 00 00 00 00 00 5F E5
 (1743356868.081057)  can0  11A   [8]  11 40 00 55 40 00 02 A8
 (1743356868.083490)  can0  1DB   [8]  FF C0 B1 AA 00 00 02 EA
 (1743356868.083552)  can0  1DC   [8]  6E 0D AF FD 05 08 C6 B2
 (1743356868.085996)  can0  1DA   [8]  B3 64 18 00 00 01 03 FE
 (1743356868.088377)  can0  1D4   [8]  F7 07 00 00 87 46 00 70
 (1743356868.089021)  can0  1F2   [8]  10 64 00 00 00 1E 02 0E
 (1743356868.091082)  can0  11A   [8]  11 40 00 AA 80 00 03 BE
 (1743356868.093724)  can0  1DB   [8]  FF C0 B1 AA 00 00 03 6F
 (1743356868.094058)  can0  1DC   [8]  6E 0D AF FD 08 C0 C3 F9
 (1743356868.096031)  can0  1DA   [8]  B3 64 18 00 00 01 00 F4
 (1743356868.096984)  can0  56E   [1]  46
 (1743356868.098920)  can0  1D4   [8]  F7 07 00 00 C7 46 00 B7
 (1743356868.098982)  can0  1F2   [8]  10 64 00 00 00 1E 03 0F
 (1743356868.099481)  can0  284   [8]  00 00 00 00 00 00 60 E6
 (1743356868.100278)  can0  11A   [8]  11 40 00 AA C0 00 00 73
 (1743356868.104329)  can0  1DB   [8]  FF C0 B1 AA 00 00 00 65
 (1743356868.104440)  can0  1DC   [8]  6E 0D AF FD 0C CC D8 B5
 (1743356868.106555)  can0  1DA   [8]  B3 64 18 00 00 01 01 71
 (1743356868.109504)  can0  1D4   [8]  F7 07 00 00 07 46 00 7B
 (1743356868.109545)  can0  1F2   [8]  10 64 00 00 00 1E 00 0C
 (1743356868.109547)  can0  50C   [6]  00 00 00 02 B2 0D
 (1743356868.111029)  can0  11A   [8]  11 40 00 55 00 00 01 65
 (1743356868.113559)  can0  1DB   [8]  FF C0 B1 AA 00 00 01 E0
 (1743356868.113731)  can0  1DC   [8]  6E 0D AF FD 01 0C D5 6E
 (1743356868.116378)  can0  1DA   [8]  B3 64 18 00 00 01 02 7B
 (1743356868.119268)  can0  1D4   [8]  F7 07 00 00 47 46 00 BC
 (1743356868.119366)  can0  1F2   [8]  10 64 00 00 00 1E 01 0D
 (1743356868.120459)  can0  284   [8]  00 00 00 00 00 00 61 E7
 (1743356868.120517)  can0  5A9   [8]  80 09 10 09 42 40 00 00
 (1743356868.120943)  can0  11A   [8]  11 40 00 55 40 00 02 A8
 (1743356868.123421)  can0  1DB   [8]  FF C0 B1 AA 00 00 02 EA
 (1743356868.123527)  can0  1DC   [8]  6E 0D AF FD 05 08 C6 B2
 (1743356868.126237)  can0  1DA   [8]  B3 64 18 00 00 01 03 FE
 (1743356868.130379)  can0  1D4   [8]  F7 07 00 00 87 46 00 70
 (1743356868.130605)  can0  1F2   [8]  10 64 00 00 00 1E 02 0E
 (1743356868.131021)  can0  380   [8]  02 04 10 21 00 00 00 9E
 (1743356868.131028)  can0  50A   [6]  85 52 A0 11 80 A0
 (1743356868.131030)  can0  5BF   [8]  00 00 00 00 28 00 00 2B
 (1743356868.132534)  can0  11A   [8]  11 40 00 AA 80 00 03 BE
 (1743356868.134860)  can0  1DB   [8]  FF C0 B1 AA 00 00 03 6F
 (1743356868.134922)  can0  1DC   [8]  6E 0D AF FD 08 C0 C3 F9
 (1743356868.134925)  can0  55B   [8]  5C 80 55 00 E7 80 13 3B
 (1743356868.135843)  can0  1DA   [8]  B3 64 18 00 00 01 00 F4
 (1743356868.136156)  can0  55A   [8]  00 3E 36 00 5F 3E 5B 08
 (1743356868.139466)  can0  1D4   [8]  F7 07 00 00 C7 46 00 B7
 (1743356868.140296)  can0  1F2   [8]  10 64 00 00 00 1E 03 0F
 (1743356868.140347)  can0  284   [8]  00 00 00 00 00 00 62 E8
 (1743356868.140349)  can0  11A   [8]  11 40 00 AA C0 00 00 73
 (1743356868.143073)  can0  1DB   [8]  FF C0 B1 AA 00 00 00 65
 (1743356868.143383)  can0  1DC   [8]  6E 0D AF FD 0C CC D8 B5
 (1743356868.143665)  can0  54A   [8]  12 00 70 02 00 00 00 2B
 (1743356868.144119)  can0  54B   [8]  01 08 80 12 04 00 00 00
 (1743356868.145137)  can0  54C   [8]  98 66 00 00 00 00 56 00
 (1743356868.145901)  can0  1DA   [8]  B3 64 18 00 00 01 01 71
 (1743356868.146356)  can0  54F   [8]  46 01 00 00 07 80 8C 49
 (1743356868.150284)  can0  1D4   [8]  F7 07 00 00 07 46 00 7B
 (1743356868.150333)  can0  1F2   [8]  10 64 00 00 00 1E 00 0C
 (1743356868.150390)  can0  50B   [6]  00 00 06 C0 00 60
 (1743356868.150909)  can0  11A   [8]  11 40 00 55 00 00 01 65
 (1743356868.152979)  can0  1DB   [8]  FF C0 B1 AA 00 00 01 E0
 (1743356868.153297)  can0  1DC   [8]  6E 0D AF FD 01 0C D5 6E
 (1743356868.155734)  can0  1DA   [8]  B3 64 18 00 00 01 02 7B
 (1743356868.160655)  can0  1D4   [8]  F7 07 00 00 47 46 00 BC
 (1743356868.160711)  can0  1F2   [8]  10 64 00 00 00 1E 01 0D
 (1743356868.160712)  can0  284   [8]  00 00 00 00 00 00 63 E9
 (1743356868.160983)  can0  11A   [8]  11 40 00 55 40 00 02 A8
 (1743356868.163388)  can0  1DB   [8]  FF C0 B1 AA 00 00 02 EA
 (1743356868.163462)  can0  1DC   [8]  6E 0D AF FD 05 08 C6 B2
 (1743356868.165811)  can0  1DA   [8]  B3 64 18 00 00 01 03 FE
 (1743356868.170325)  can0  1D4   [8]  F7 07 00 00 87 46 00 70
 (1743356868.170728)  can0  1F2   [8]  10 64 00 00 00 1E 02 0E
 (1743356868.171173)  can0  11A   [8]  11 40 00 AA 80 00 03 BE
 (1743356868.173118)  can0  1DB   [8]  FF C0 B1 AA 00 00 03 6F
 (1743356868.173551)  can0  1DC   [8]  6E 0D AF FD 08 C0 C3 F9
 (1743356868.176026)  can0  1DA   [8]  B3 64 18 00 00 01 00 F4
 (1743356868.181134)  can0  11A   [8]  11 40 00 AA C0 00 00 73
 (1743356868.181175)  can0  1D4   [8]  F7 07 00 00 C7 46 00 B7
 (1743356868.181178)  can0  1F2   [8]  10 64 00 00 00 1E 03 0F
 (1743356868.181220)  can0  284   [8]  00 00 00 00 00 00 64 EA
 (1743356868.183013)  can0  1DB   [8]  FF C0 B1 AA 00 00 00 65
 (1743356868.183314)  can0  1DC   [8]  6E 0D AF FD 0C CC D8 B5
 (1743356868.185874)  can0  1DA   [8]  B3 64 18 00 00 01 01 71
 (1743356868.190722)  can0  1D4   [8]  F7 07 00 00 07 46 00 7B
 (1743356868.191690)  can0  1F2   [8]  10 64 00 00 00 1E 00 0C
 (1743356868.191753)  can0  11A   [8]  11 40 00 55 00 00 01 65
 (1743356868.191754)  can0  284   [8]  00 00 00 00 00 00 65 EB
 (1743356868.191756)  can0  5B9   [5]  11 86 63 C0 28
 (1743356868.193041)  can0  1DB   [8]  FF C0 B1 AA 00 00 01 E0
 (1743356868.193554)  can0  1DC   [8]  6E 0D AF FD 01 0C D5 6E
 (1743356868.195923)  can0  1DA   [8]  B3 64 18 00 00 01 02 7B
 (1743356868.198860)  can0  56E   [1]  46
 (1743356868.200607)  can0  11A   [8]  11 40 00 55 40 00 02 A8
 (1743356868.201279)  can0  1D4   [8]  F7 07 00 00 47 46 00 BC
 (1743356868.201306)  can0  1F2   [8]  10 64 00 00 00 1E 01 0D
 (1743356868.202966)  can0  1DB   [8]  FF C0 B1 AA 00 00 02 EA
 (1743356868.203308)  can0  1DC   [8]  6E 0D AF FD 05 08 C6 B2
 (1743356868.205793)  can0  1DA   [8]  B3 64 18 00 00 01 03 FE
 (1743356868.211143)  can0  11A   [8]  11 40 00 AA 80 00 03 BE
 (1743356868.212265)  can0  1D4   [8]  F7 07 00 00 87 46 00 70
 (1743356868.212307)  can0  1F2   [8]  10 64 00 00 00 1E 02 0E
 (1743356868.212308)  can0  284   [8]  00 00 00 00 00 00 66 EC
 (1743356868.212386)  can0  50C   [6]  00 00 00 03 B2 9A
 (1743356868.213125)  can0  1DB   [8]  FF C0 B1 AA 00 00 03 6F
 (1743356868.213590)  can0  1DC   [8]  6E 0D AF FD 08 C0 C3 F9
 (1743356868.215801)  can0  1DA   [8]  B3 64 18 00 00 01 00 F4
 (1743356868.220378)  can0  11A   [8]  11 40 00 AA C0 00 00 73
 (1743356868.221460)  can0  1D4   [8]  F7 07 00 00 C7 46 00 B7
 (1743356868.222095)  can0  1F2   [8]  10 64 00 00 00 1E 03 0F
 (1743356868.223004)  can0  1DB   [8]  FF C0 B1 AA 00 00 00 65
 (1743356868.223375)  can0  1DC   [8]  6E 0D AF FD 0C CC D8 B5
 (1743356868.226393)  can0  1DA   [8]  B3 64 18 00 00 01 01 71
 (1743356868.230294)  can0  380   [8]  02 04 10 21 00 00 00 AF
 (1743356868.230365)  can0  5BF   [8]  00 00 00 00 28 00 00 3C
 (1743356868.231048)  can0  11A   [8]  11 40 00 55 00 00 01 65
 (1743356868.231789)  can0  1D4   [8]  F7 07 00 00 07 46 00 7B
 (1743356868.232804)  can0  1F2   [8]  10 64 00 00 00 1E 00 0C
 (1743356868.232865)  can0  284   [8]  00 00 00 00 00 00 67 ED
 (1743356868.232869)  can0  50A   [6]  85 72 A0 11 80 A0
 (1743356868.233903)  can0  1DB   [8]  FF C0 B1 AA 00 00 01 E0
 (1743356868.233974)  can0  1DC   [8]  6E 0D AF FD 01 0C D5 6E
 (1743356868.234039)  can0  55B   [8]  5C 80 AA 00 E7 80 10 76
 (1743356868.235861)  can0  1DA   [8]  B3 64 18 00 00 01 02 7B
 (1743356868.236426)  can0  55A   [8]  00 3E 36 00 5F 3E 5B 08
 (1743356868.241011)  can0  11A   [8]  11 40 00 55 40 00 02 A8
 (1743356868.242015)  can0  1D4   [8]  F7 07 00 00 47 46 00 BC
 (1743356868.242599)  can0  1F2   [8]  10 64 00 00 00 1E 01 0D
 (1743356868.243757)  can0  1DB   [8]  FF C0 B1 AA 00 00 02 EA
 (1743356868.243860)  can0  1DC   [8]  6E 0D AF FD 05 08 C6 B2
 (1743356868.243863)  can0  54A   [8]  A0 00 70 02 00 00 00 2B
 (1743356868.244287)  can0  54B   [8]  01 08 80 12 04 00 00 00
 (1743356868.245419)  can0  54C   [8]  98 66 00 00 00 00 56 00
 (1743356868.246237)  can0  1DA   [8]  B3 64 18 00 00 01 03 FE
 (1743356868.247379)  can0  54F   [8]  46 01 00 00 07 C0 8C 49
 (1743356868.250996)  can0  11A   [8]  11 40 00 AA 80 00 03 BE
 (1743356868.252218)  can0  1D4   [8]  F7 07 00 00 87 46 00 70
 (1743356868.254047)  can0  1F2   [8]  10 64 00 00 00 1E 02 0E
 (1743356868.254110)  can0  284   [8]  00 00 00 00 00 00 68 EE
 (1743356868.254113)  can0  50B   [6]  00 00 06 C0 00 60
 (1743356868.254114)  can0  1DB   [8]  FF C0 B1 AA 00 00 03 6F
 (1743356868.254116)  can0  1DC   [8]  6E 0D AF FD 08 C0 C3 F9
 (1743356868.255879)  can0  1DA   [8]  B3 64 18 00 00 01 00 F4
 (1743356868.260817)  can0  11A   [8]  11 40 00 AA C0 00 00 73
 (1743356868.262790)  can0  1D4   [8]  F7 07 00 00 C7 46 00 B7
 (1743356868.262853)  can0  1F2   [8]  10 64 00 00 00 1E 03 0F
 (1743356868.263552)  can0  1DB   [8]  FF C0 B1 AA 00 00 00 65
 (1743356868.263610)  can0  1DC   [8]  6E 0D AF FD 0C CC D8 B5
 (1743356868.265907)  can0  1DA   [8]  B3 64 18 00 00 01 01 71
 (1743356868.271044)  can0  11A   [8]  11 40 00 55 00 00 01 65
 (1743356868.272714)  can0  1D4   [8]  F7 07 00 00 07 46 00 7B
 (1743356868.273873)  can0  1F2   [8]  10 64 00 00 00 1E 00 0C
 (1743356868.273951)  can0  1DB   [8]  FF C0 B1 AA 00 00 01 E0
 (1743356868.273954)  can0  1DC   [8]  6E 0D AF FD 01 0C D5 6E
 (1743356868.273955)  can0  284   [8]  00 00 00 00 00 00 69 EF
 (1743356868.276057)  can0  1DA   [8]  B3 64 18 00 00 01 02 7B
 (1743356868.281062)  can0  11A   [8]  11 40 00 55 40 00 02 A8
 (1743356868.282916)  can0  1D4   [8]  F7 07 00 00 47 46 00 BC
 (1743356868.283831)  can0  1DB   [8]  FF C0 B1 AA 00 00 02 EA
 (1743356868.283923)  can0  1DC   [8]  6E 0D AF FD 05 08 C6 B2
 (1743356868.283926)  can0  1F2   [8]  10 64 00 00 00 1E 01 0D
 (1743356868.285834)  can0  1DA   [8]  B3 64 18 00 00 01 03 FE
 (1743356868.291368)  can0  11A   [8]  11 40 00 AA 80 00 03 BE
 (1743356868.294129)  can0  1DB   [8]  FF C0 B1 AA 00 00 03 6F
 (1743356868.294338)  can0  1D4   [8]  F7 07 00 00 87 46 00 70
 (1743356868.294727)  can0  1DC   [8]  6E 0D AF FD 08 C0 C3 F9
 (1743356868.294764)  can0  1F2   [8]  10 64 00 00 00 1E 02 0E
 (1743356868.294767)  can0  284   [8]  00 00 00 00 00 00 6A F0
 (1743356868.295908)  can0  1DA   [8]  B3 64 18 00 00 01 00 F4
 (1743356868.300618)  can0  11A   [8]  11 40 00 AA C0 00 00 73
 (1743356868.301392)  can0  56E   [1]  46
 (1743356868.303121)  can0  1DB   [8]  FF C0 B1 AA 00 00 00 65
 (1743356868.304010)  can0  1DC   [8]  6E 0D AF FD 0C CC D8 B5
 (1743356868.304105)  can0  1D4   [8]  F7 07 00 00 C7 46 00 B7
 (1743356868.304108)  can0  1F2   [8]  10 64 00 00 00 1E 03 0F
 (1743356868.306041)  can0  1DA   [8]  B3 64 18 00 00 01 01 71
 (1743356868.311047)  can0  11A   [8]  11 40 00 55 00 00 01 65
 (1743356868.313108)  can0  1DB   [8]  FF C0 B1 AA 00 00 01 E0
 (1743356868.316238)  can0  1DC   [8]  6E 0D AF FD 01 0C D5 6E
 (1743356868.316336)  can0  1D4   [8]  F7 07 00 00 07 46 00 7B
 (1743356868.316339)  can0  1F2   [8]  10 64 00 00 00 1E 00 0C
 (1743356868.316340)  can0  284   [8]  00 00 00 00 00 00 6B F1
 (1743356868.316342)  can0  50C   [6]  00 00 00 00 5D C8
 (1743356868.316538)  can0  1DA   [8]  B3 64 18 00 00 01 02 7B
 (1743356868.321419)  can0  11A   [8]  11 40 00 55 40 00 02 A8
 (1743356868.323126)  can0  1DB   [8]  FF C0 B1 AA 00 00 02 EA
 (1743356868.324022)  can0  1DC   [8]  6E 0D AF FD 05 08 C6 B2
 (1743356868.324110)  can0  1D4   [8]  F7 07 00 00 47 46 00 BC
 (1743356868.324536)  can0  1F2   [8]  10 64 00 00 00 1E 01 0D
 (1743356868.325927)  can0  1DA   [8]  B3 64 18 00 00 01 03 FE
 (1743356868.330491)  can0  380   [8]  02 04 10 21 00 00 00 B0
 (1743356868.330636)  can0  5BF   [8]  00 00 00 00 28 00 00 09
 (1743356868.331074)  can0  11A   [8]  11 40 00 AA 80 00 03 BE
 (1743356868.333548)  can0  1DB   [8]  FF C0 B1 AA 00 00 03 6F
 (1743356868.333847)  can0  1DC   [8]  6E 0D AF FD 08 C0 C3 F9
 (1743356868.334808)  can0  55B   [8]  5C 80 AA 00 E7 80 11 F3
 (1743356868.334868)  can0  1D4   [8]  F7 07 00 00 87 46 00 70
 (1743356868.334870)  can0  1F2   [8]  10 64 00 00 00 1E 02 0E
 (1743356868.335519)  can0  284   [8]  00 00 00 00 00 00 6C F2
 (1743356868.335835)  can0  50A   [6]  85 12 A0 11 80 A0
 (1743356868.336469)  can0  1DA   [8]  B3 64 18 00 00 01 00 F4
 (1743356868.336784)  can0  55A   [8]  00 3E 36 00 5F 3E 5B 08
 (1743356868.340421)  can0  11A   [8]  11 40 00 AA C0 00 00 73
 (1743356868.343781)  can0  1DB   [8]  FF C0 B1 AA 00 00 00 65
 (1743356868.343887)  can0  1DC   [8]  6E 0D AF FD 0C CC D8 B5
 (1743356868.343890)  can0  54A   [8]  12 00 70 02 00 00 00 2B
 (1743356868.345049)  can0  54B   [8]  01 08 80 12 04 00 00 00
 (1743356868.346184)  can0  1D4   [8]  F7 07 00 00 C7 46 00 B7
 (1743356868.346215)  can0  1F2   [8]  10 64 00 00 00 1E 03 0F
 (1743356868.346217)  can0  54C   [8]  98 66 00 00 00 00 56 00
 (1743356868.346218)  can0  1DA   [8]  B3 64 18 00 00 01 01 71
 (1743356868.347380)  can0  54F   [8]  46 01 00 00 07 00 8C 49
 (1743356868.351159)  can0  11A   [8]  11 40 00 55 00 00 01 65
 (1743356868.353468)  can0  1DB   [8]  FF C0 B1 AA 00 00 01 E0
 (1743356868.353618)  can0  1DC   [8]  6E 0D AF FD 01 0C D5 6E
 (1743356868.354718)  can0  1D4   [8]  F7 07 00 00 07 46 00 7B
 (1743356868.355952)  can0  1F2   [8]  10 64 00 00 00 1E 00 0C
 (1743356868.355991)  can0  284   [8]  00 00 00 00 00 00 6D F3
 (1743356868.355994)  can0  50B   [6]  00 00 06 C0 00 60
 (1743356868.356369)  can0  1DA   [8]  B3 64 18 00 00 01 02 7B
 (1743356868.361370)  can0  11A   [8]  11 40 00 55 40 00 02 A8
 (1743356868.363524)  can0  1DB   [8]  FF C0 B1 AA 00 00 02 EA
 (1743356868.363597)  can0  1DC   [8]  6E 0D AF FD 05 08 C6 B2
 (1743356868.365242)  can0  1D4   [8]  F7 07 00 00 47 46 00 BC
 (1743356868.365301)  can0  1F2   [8]  10 64 00 00 00 1E 01 0D
 (1743356868.365897)  can0  1DA   [8]  B3 64 18 00 00 01 03 FE
 (1743356868.371105)  can0  11A   [8]  11 40 00 AA 80 00 03 BE
 (1743356868.373455)  can0  1DB   [8]  FF C0 B1 AA 00 00 03 6F
 (1743356868.373546)  can0  1DC   [8]  6E 0D AF FD 08 C0 C3 F9
 (1743356868.375142)  can0  1D4   [8]  F7 07 00 00 87 46 00 70
 (1743356868.376205)  can0  1F2   [8]  10 64 00 00 00 1E 02 0E
 (1743356868.376297)  can0  284   [8]  00 00 00 00 00 00 6E F4
 (1743356868.376300)  can0  1DA   [8]  B3 64 18 00 00 01 00 F4
 (1743356868.380298)  can0  11A   [8]  11 40 00 AA C0 00 00 73
 (1743356868.383316)  can0  1DB   [8]  FF C0 B1 AA 00 00 00 65
 (1743356868.383371)  can0  1DC   [8]  6E 0D AF FD 0C CC D8 B5
 (1743356868.385145)  can0  1D4   [8]  F7 07 00 00 C7 46 00 B7
 (1743356868.385472)  can0  1F2   [8]  10 64 00 00 00 1E 03 0F
 (1743356868.385748)  can0  1DA   [8]  B3 64 18 00 00 01 01 71
 (1743356868.390886)  can0  11A   [8]  11 40 00 55 00 00 01 65
 (1743356868.393619)  can0  1DB   [8]  FF C0 B1 AA 00 00 01 E0
 (1743356868.393725)  can0  1DC   [8]  6E 0D AF FD 01 0C D5 6E
 (1743356868.395921)  can0  1D4   [8]  F7 07 00 00 07 46 00 7B
 (1743356868.396327)  can0  1F2   [8]  10 64 00 00 00 1E 00 0C
 (1743356868.396497)  can0  1DA   [8]  B3 64 18 00 00 01 02 7B
 (1743356868.396501)  can0  284   [8]  00 00 00 00 00 00 6F F5
 (1743356868.401115)  can0  11A   [8]  11 40 00 55 40 00 02 A8
 (1743356868.402953)  can0  56E   [1]  46
 (1743356868.403650)  can0  1DB   [8]  FF C0 B1 AA 00 00 02 EA
 (1743356868.403708)  can0  1DC   [8]  6E 0D AF FD 05 08 C6 B2
 (1743356868.406184)  can0  1DA   [8]  B3 64 18 00 00 01 03 FE
 (1743356868.406247)  can0  1D4   [8]  F7 07 00 00 47 46 00 BC
 (1743356868.406692)  can0  1F2   [8]  10 64 00 00 00 1E 01 0D
 (1743356868.411013)  can0  11A   [8]  11 40 00 AA 80 00 03 BE
 (1743356868.413083)  can0  1DB   [8]  FF A0 B1 AA 00 00 03 9C
 (1743356868.413708)  can0  1DC   [8]  6E 0D AF FD 08 C0 C3 F9
 (1743356868.416193)  can0  1DA   [8]  B3 64 18 00 00 01 00 F4
 (1743356868.416997)  can0  1D4   [8]  F7 07 00 00 87 46 00 70
 (1743356868.417388)  can0  1F2   [8]  10 64 00 00 00 1E 02 0E
 (1743356868.417395)  can0  284   [8]  00 00 00 00 00 00 70 F6
 (1743356868.417397)  can0  50C   [6]  00 00 00 01 5D 5F
 (1743356868.420303)  can0  11A   [8]  11 40 00 AA C0 00 00 73
 (1743356868.423081)  can0  1DB   [8]  FF C0 B1 AA 00 00 00 65
 (1743356868.423584)  can0  1DC   [8]  6E 0D AF FD 0C CC D8 B5
 (1743356868.426015)  can0  1DA   [8]  B3 64 18 00 00 01 01 71
 (1743356868.426630)  can0  1D4   [8]  F7 07 00 00 C7 46 00 B7
 (1743356868.427198)  can0  1F2   [8]  10 64 00 00 00 1E 03 0F
 (1743356868.432450)  can0  380   [8]  02 04 10 21 00 00 00 8D
 (1743356868.432548)  can0  5BF   [8]  00 00 00 00 28 00 00 1A
 (1743356868.432550)  can0  11A   [8]  11 40 00 55 00 00 01 65
 (1743356868.433172)  can0  1DB   [8]  FF C0 B1 AA 00 00 01 E0
 (1743356868.433797)  can0  1DC   [8]  6E 0D AF FD 01 0C D5 6E
 (1743356868.433838)  can0  55B   [8]  5C 80 AA 00 E7 80 12 F9
 (1743356868.435739)  can0  1DA   [8]  B3 64 18 00 00 01 02 7B
 (1743356868.436206)  can0  55A   [8]  00 3E 36 00 5F 3E 5B 08
 (1743356868.437522)  can0  1D4   [8]  F7 07 00 00 07 46 00 7B
 (1743356868.437592)  can0  1F2   [8]  10 64 00 00 00 1E 00 0C
 (1743356868.437595)  can0  284   [8]  00 00 00 00 00 00 71 F7
 (1743356868.437597)  can0  50A   [6]  85 32 A0 11 80 A0
 (1743356868.441066)  can0  11A   [8]  11 40 00 55 40 00 02 A8
 (1743356868.443595)  can0  1DB   [8]  FF C0 B1 AA 00 00 02 EA
 (1743356868.443701)  can0  1DC   [8]  6E 0D AF FD 05 08 C6 B2
 (1743356868.443704)  can0  54A   [8]  A0 00 70 02 00 00 00 2B
 (1743356868.444457)  can0  54B   [8]  01 08 80 12 04 00 00 00
 (1743356868.445493)  can0  54C   [8]  98 66 00 00 00 00 56 00
 (1743356868.446242)  can0  1DA   [8]  B3 64 18 00 00 01 03 FE
 (1743356868.447267)  can0  54F   [8]  46 01 00 00 07 40 8C 49
 (1743356868.447359)  can0  1D4   [8]  F7 07 00 00 47 46 00 BC
 (1743356868.447794)  can0  1F2   [8]  10 64 00 00 00 1E 01 0D
 (1743356868.451153)  can0  11A   [8]  11 40 00 AA 80 00 03 BE
 (1743356868.453098)  can0  1DB   [8]  FF C0 B1 AA 00 00 03 6F
 (1743356868.453697)  can0  1DC   [8]  6E 0D AF FD 08 C0 C3 F9
 (1743356868.455875)  can0  1DA   [8]  B3 64 18 00 00 01 00 F4
 (1743356868.457150)  can0  1D4   [8]  F7 07 00 00 87 46 00 70
 (1743356868.458266)  can0  1F2   [8]  10 64 00 00 00 1E 02 0E
 (1743356868.458357)  can0  284   [8]  00 00 00 00 00 00 72 F8
 (1743356868.458363)  can0  50B   [6]  00 00 06 C0 00 60
 (1743356868.460637)  can0  11A   [8]  11 40 00 AA C0 00 00 73
 (1743356868.463390)  can0  1DB   [8]  FF C0 B1 AA 00 00 00 65
 (1743356868.463475)  can0  1DC   [8]  6E 0D AF FD 0C CC D8 B5
 (1743356868.465908)  can0  1DA   [8]  B3 64 18 00 00 01 01 71
 (1743356868.467153)  can0  1D4   [8]  F7 07 00 00 C7 46 00 B7
 (1743356868.467416)  can0  1F2   [8]  10 64 00 00 00 1E 03 0F
 (1743356868.470789)  can0  11A   [8]  11 40 00 55 00 00 01 65
 (1743356868.472901)  can0  1DB   [8]  FF C0 B1 AA 00 00 01 E0
 (1743356868.473158)  can0  1DC   [8]  6E 0D AF FD 01 0C D5 6E
 (1743356868.475877)  can0  1DA   [8]  B3 64 18 00 00 01 02 7B
 (1743356868.477585)  can0  1D4   [8]  F7 07 00 00 07 46 00 7B
 (1743356868.478364)  can0  1F2   [8]  10 64 00 00 00 1E 00 0C
 (1743356868.478471)  can0  284   [8]  00 00 00 00 00 00 73 F9
 (1743356868.480996)  can0  11A   [8]  11 40 00 55 40 00 02 A8
 (1743356868.483077)  can0  1DB   [8]  FF C0 B1 AA 00 00 02 EA
 (1743356868.483687)  can0  1DC   [8]  6E 0D AF FD 05 08 C6 B2
 (1743356868.485864)  can0  1DA   [8]  B3 64 18 00 00 01 03 FE
 (1743356868.487751)  can0  1D4   [8]  F7 07 00 00 47 46 00 BC
 (1743356868.488352)  can0  1F2   [8]  10 64 00 00 00 1E 01 0D
 (1743356868.491071)  can0  11A   [8]  11 40 00 AA 80 00 03 BE
 (1743356868.493011)  can0  1DB   [8]  FF C0 B1 AA 00 00 03 6F
 (1743356868.493264)  can0  1DC   [8]  6E 0D AF FD 08 C0 C3 F9
 (1743356868.495777)  can0  1DA   [8]  B3 64 18 00 00 01 00 F4
 (1743356868.497882)  can0  1D4   [8]  F7 07 00 00 87 46 00 70
 (1743356868.498402)  can0  1F2   [8]  10 64 00 00 00 1E 02 0E
 (1743356868.498437)  can0  284   [8]  00 00 00 00 00 00 74 FA
 (1743356868.500196)  can0  11A   [8]  11 40 00 AA C0 00 00 73
 (1743356868.503071)  can0  1DB   [8]  FF E0 B1 AA 00 00 00 34
 (1743356868.503583)  can0  1DC   [8]  6E 0D AF FD 0C CC D8 B5
 (1743356868.504917)  can0  56E   [1]  46
 (1743356868.505807)  can0  1DA   [8]  B3 64 18 00 00 01 01 71
 (1743356868.508236)  can0  1D4   [8]  F7 07 00 00 C7 46 00 B7
 (1743356868.508597)  can0  1F2   [8]  10 64 00 00 00 1E 03 0F
 (1743356868.510900)  can0  11A   [8]  11 40 00 55 00 00 01 65
 (1743356868.513040)  can0  1DB   [8]  FF E0 B1 AA 00 00 01 B1
 (1743356868.513473)  can0  1DC   [8]  6E 0D AF FD 01 0C D5 6E
 (1743356868.515914)  can0  1DA   [8]  B3 64 18 00 00 01 02 7B
 (1743356868.518541)  can0  1D4   [8]  F7 07 00 00 07 46 00 7B
 (1743356868.519476)  can0  1F2   [8]  10 64 00 00 00 1E 00 0C
 (1743356868.519544)  can0  284   [8]  00 00 00 00 00 00 75 FB
 (1743356868.519624)  can0  50C   [6]  00 00 00 02 5D 63
 (1743356868.520939)  can0  11A   [8]  11 40 00 55 40 00 02 A8
 (1743356868.523093)  can0  1DB   [8]  FF E0 B1 AA 00 00 02 BB
 (1743356868.523634)  can0  1DC   [8]  6E 0D AF FD 05 08 C6 B2
 (1743356868.528373)  can0  1DA   [8]  B3 64 18 00 00 01 03 FE
 (1743356868.529391)  can0  1D4   [8]  F7 07 00 00 47 46 00 BC
 (1743356868.529487)  can0  1F2   [8]  10 64 00 00 00 1E 01 0D
 (1743356868.530135)  can0  380   [8]  02 04 10 21 00 00 00 9E
 (1743356868.530791)  can0  5BF   [8]  00 00 00 00 28 00 00 2B
 (1743356868.531352)  can0  11A   [8]  11 40 00 AA 80 00 03 BE
 (1743356868.533577)  can0  1DB   [8]  FF E0 B1 AA 00 00 03 3E
 (1743356868.533638)  can0  1DC   [8]  6E 0D AF FD 08 C0 C3 F9
 (1743356868.534119)  can0  55B   [8]  5C 80 AA 00 E7 80 13 7C
 (1743356868.535808)  can0  1DA   [8]  B3 64 18 00 00 01 00 F4
 (1743356868.536348)  can0  55A   [8]  00 3E 36 00 5F 3E 5B 08
 (1743356868.540541)  can0  1D4   [8]  F7 07 00 00 87 46 00 70
 (1743356868.540635)  can0  1F2   [8]  10 64 00 00 00 1E 02 0E
 (1743356868.540638)  can0  284   [8]  00 00 00 00 00 00 76 FC
 (1743356868.540639)  can0  50A   [6]  85 52 A0 11 80 A0
 (1743356868.540686)  can0  11A   [8]  11 40 00 AA C0 00 00 73
 (1743356868.545210)  can0  1DB   [8]  FF E0 B1 AA 00 00 00 34
 (1743356868.545500)  can0  1DC   [8]  6E 0D AF FD 0C CC D8 B5
 (1743356868.545503)  can0  54A   [8]  12 00 70 02 00 00 00 2B
 (1743356868.545505)  can0  5BC   [8]  18 40 0C 37 C9 04 1F FF
 (1743356868.545506)  can0  5C0   [8]  C0 6A 6C DF C8 C8 00 00
 (1743356868.545508)  can0  54B   [8]  01 08 80 12 04 00 00 00
 (1743356868.546041)  can0  54C   [8]  98 66 00 00 00 00 56 00
 (1743356868.546612)  can0  1DA   [8]  B3 64 18 00 00 01 01 71
 (1743356868.547300)  can0  54F   [8]  46 01 00 00 07 80 8C 49
 (1743356868.549728)  can0  1D4   [8]  F7 07 00 00 C7 46 00 B7
 (1743356868.549821)  can0  1F2   [8]  10 64 00 00 00 1E 03 0F
 (1743356868.551003)  can0  11A   [8]  11 40 00 55 00 00 01 65
 (1743356868.553087)  can0  1DB   [8]  FF E0 B1 AA 00 00 01 B1
 (1743356868.553685)  can0  1DC   [8]  6E 0D AF FD 01 0C D5 6E
 (1743356868.556071)  can0  1DA   [8]  B3 64 18 00 00 01 02 7B
 (1743356868.559879)  can0  1D4   [8]  F7 07 00 00 07 46 00 7B
 (1743356868.559942)  can0  1F2   [8]  10 64 00 00 00 1E 00 0C
 (1743356868.561135)  can0  284   [8]  00 00 00 00 00 00 77 FD
 (1743356868.561242)  can0  50B   [6]  00 00 06 C0 00 60
 (1743356868.562056)  can0  11A   [8]  11 40 00 55 40 00 02 A8
 (1743356868.563750)  can0  1DB   [8]  FF E0 B1 AA 00 00 02 BB
 (1743356868.563823)  can0  1DC   [8]  6E 0D AF FD 05 08 C6 B2
 (1743356868.565943)  can0  1DA   [8]  B3 64 18 00 00 01 03 FE
 (1743356868.569729)  can0  1D4   [8]  F7 07 00 00 47 46 00 BC
 (1743356868.570282)  can0  1F2   [8]  10 64 00 00 00 1E 01 0D
 (1743356868.571522)  can0  11A   [8]  11 40 00 AA 80 00 03 BE
 (1743356868.573455)  can0  1DB   [8]  FF E0 B1 AA 00 00 03 3E
 (1743356868.573523)  can0  1DC   [8]  6E 0D AF FD 08 C0 C3 F9
 (1743356868.575845)  can0  1DA   [8]  B3 64 18 00 00 01 00 F4
 (1743356868.580048)  can0  1D4   [8]  F7 07 00 00 87 46 00 70
 (1743356868.581022)  can0  1F2   [8]  10 64 00 00 00 1E 02 0E
 (1743356868.581096)  can0  11A   [8]  11 40 00 AA C0 00 00 73
 (1743356868.581098)  can0  284   [8]  00 00 00 00 00 00 78 FE
 (1743356868.583086)  can0  1DB   [8]  FF E0 B1 AA 00 00 00 34
 (1743356868.583653)  can0  1DC   [8]  6E 0D AF FD 0C CC D8 B5
 (1743356868.585797)  can0  1DA   [8]  B3 64 18 00 00 01 01 71
 (1743356868.590661)  can0  1D4   [8]  F7 07 00 00 C7 46 00 B7
 (1743356868.590742)  can0  1F2   [8]  10 64 00 00 00 1E 03 0F
 (1743356868.591168)  can0  11A   [8]  11 40 00 55 00 00 01 65
 (1743356868.593339)  can0  1DB   [8]  FF E0 B1 AA 00 00 01 B1
 (1743356868.593393)  can0  1DC   [8]  6E 0D AF FD 01 0C D5 6E
 (1743356868.595951)  can0  1DA   [8]  B3 64 18 00 00 01 02 7B
 (1743356868.600802)  can0  1D4   [8]  F7 07 00 00 07 46 00 7B
 (1743356868.600907)  can0  1F2   [8]  10 64 00 00 00 1E 00 0C
 (1743356868.601598)  can0  284   [8]  00 00 00 00 00 00 79 FF
 (1743356868.601660)  can0  11A   [8]  11 40 00 55 40 00 02 A8
 (1743356868.603053)  can0  1DB   [8]  FF C0 B1 AA 00 00 02 EA
 (1743356868.603685)  can0  1DC   [8]  6E 0D AF FD 05 08 C6 B2
 (1743356868.605849)  can0  1DA   [8]  B3 64 18 00 00 01 03 FE
 (1743356868.606890)  can0  56E   [1]  46
 (1743356868.610739)  can0  1D4   [8]  F7 07 00 00 47 46 00 BC
 (1743356868.611782)  can0  1F2   [8]  10 64 00 00 00 1E 01 0D
 (1743356868.611844)  can0  11A   [8]  11 40 00 AA 80 00 03 BE
 (1743356868.611847)  can0  284   [8]  00 00 00 00 00 00 7A 00
 (1743356868.613089)  can0  1DB   [8]  FF C0 B1 AA 00 00 03 6F
 (1743356868.613618)  can0  1DC   [8]  6E 0D AF FD 08 C0 C3 F9
 (1743356868.615824)  can0  1DA   [8]  B3 64 18 00 00 01 00 F4
 (1743356868.620369)  can0  11A   [8]  11 40 00 AA C0 00 00 73
 (1743356868.621007)  can0  1D4   [8]  F7 07 00 00 87 46 00 70
 (1743356868.621640)  can0  1F2   [8]  10 64 00 00 00 1E 02 0E
 (1743356868.621722)  can0  50C   [6]  00 00 00 03 5D F4
 (1743356868.623465)  can0  1DB   [8]  FF E0 B1 AA 00 00 00 34
 (1743356868.623599)  can0  1DC   [8]  6E 0D AF FD 0C CC D8 B5
 (1743356868.625883)  can0  1DA   [8]  B3 64 18 00 00 01 01 71
 (1743356868.630757)  can0  380   [8]  02 04 10 21 00 00 00 AF
 (1743356868.632085)  can0  5BF   [8]  00 00 00 00 28 00 00 3C
 (1743356868.632487)  can0  11A   [8]  11 40 00 55 00 00 01 65
 (1743356868.632559)  can0  1D4   [8]  F7 07 00 00 C7 46 00 B7
 (1743356868.632562)  can0  1F2   [8]  10 64 00 00 00 1E 03 0F
 (1743356868.632564)  can0  284   [8]  00 00 00 00 00 00 7B 01
 (1743356868.632565)  can0  5A9   [8]  80 09 10 09 42 40 00 00
 (1743356868.633618)  can0  1DB   [8]  FF E0 B1 AA 00 00 01 B1
 (1743356868.634113)  can0  1DC   [8]  6E 0D AF FD 01 0C D5 6E
 (1743356868.634165)  can0  55B   [8]  5C 80 AA 00 E7 80 10 76
 (1743356868.635864)  can0  1DA   [8]  B3 64 18 00 00 01 02 7B
 (1743356868.636405)  can0  55A   [8]  00 3E 36 00 5F 3E 5B 08
 (1743356868.641004)  can0  11A   [8]  11 40 00 55 40 00 02 A8
 (1743356868.641627)  can0  1D4   [8]  F7 07 00 00 07 46 00 7B
 (1743356868.642392)  can0  1F2   [8]  10 64 00 00 00 1E 00 0C
 (1743356868.642547)  can0  50A   [6]  85 72 A0 11 80 A0
 (1743356868.643512)  can0  1DB   [8]  FF E0 B1 AA 00 00 02 BB
 (1743356868.643810)  can0  1DC   [8]  6E 0D AF FD 05 08 C6 B2
 (1743356868.643816)  can0  54A   [8]  A0 00 70 02 00 00 00 2B
 (1743356868.644595)  can0  54B   [8]  01 08 80 12 04 00 00 00
 (1743356868.645595)  can0  54C   [8]  98 66 00 00 00 00 56 00
 (1743356868.646145)  can0  1DA   [8]  B3 64 18 00 00 01 03 FE
 (1743356868.647151)  can0  54F   [8]  46 01 00 00 07 C0 8C 49
 (1743356868.651175)  can0  11A   [8]  11 40 00 AA 80 00 03 BE
 (1743356868.651740)  can0  1D4   [8]  F7 07 00 00 47 46 00 BC
 (1743356868.652423)  can0  1F2   [8]  10 64 00 00 00 1E 01 0D
 (1743356868.652480)  can0  284   [8]  00 00 00 00 00 00 7C 02
 (1743356868.653045)  can0  1DB   [8]  FF E0 B1 AA 00 00 03 3E
 (1743356868.653652)  can0  1DC   [8]  6E 0D AF FD 08 C0 C3 F9
 (1743356868.655849)  can0  1DA   [8]  B3 64 18 00 00 01 00 F4
 (1743356868.660589)  can0  11A   [8]  11 40 00 AA C0 00 00 73
 (1743356868.662280)  can0  1D4   [8]  F7 07 00 00 87 46 00 70
 (1743356868.662340)  can0  1F2   [8]  10 64 00 00 00 1E 02 0E
 (1743356868.662769)  can0  50B   [6]  00 00 06 C0 00 60
 (1743356868.663686)  can0  1DB   [8]  FF E0 B1 AA 00 00 00 34
 (1743356868.663745)  can0  1DC   [8]  6E 0D AF FD 0C CC D8 B5
 (1743356868.665954)  can0  1DA   [8]  B3 64 18 00 00 01 01 71
 (1743356868.671030)  can0  11A   [8]  11 40 00 55 00 00 01 65
 (1743356868.672221)  can0  1D4   [8]  F7 07 00 00 C7 46 00 B7
 (1743356868.673425)  can0  1F2   [8]  10 64 00 00 00 1E 03 0F
 (1743356868.673494)  can0  284   [8]  00 00 00 00 00 00 7D 03
 (1743356868.673497)  can0  1DB   [8]  FF E0 B1 AA 00 00 01 B1
 (1743356868.673523)  can0  1DC   [8]  6E 0D AF FD 01 0C D5 6E
 (1743356868.675972)  can0  1DA   [8]  B3 64 18 00 00 01 02 7B
 (1743356868.680762)  can0  11A   [8]  11 40 00 55 40 00 02 A8
 (1743356868.682423)  can0  1D4   [8]  F7 07 00 00 07 46 00 7B
 (1743356868.683440)  can0  1F2   [8]  10 64 00 00 00 1E 00 0C
 (1743356868.683530)  can0  1DB   [8]  FF C0 B1 AA 00 00 02 EA
 (1743356868.683533)  can0  1DC   [8]  6E 0D AF FD 05 08 C6 B2
 (1743356868.685799)  can0  1DA   [8]  B3 64 18 00 00 01 03 FE
 (1743356868.691052)  can0  11A   [8]  11 40 00 AA 80 00 03 BE
 (1743356868.692728)  can0  1D4   [8]  F7 07 00 00 47 46 00 BC
 (1743356868.694130)  can0  1F2   [8]  10 64 00 00 00 1E 01 0D
 (1743356868.694209)  can0  1DB   [8]  FF E0 B1 AA 00 00 03 3E
 (1743356868.694212)  can0  1DC   [8]  6E 0D AF FD 08 C0 C3 F9
 (1743356868.694214)  can0  284   [8]  00 00 00 00 00 00 7E 04
 (1743356868.695874)  can0  1DA   [8]  B3 64 18 00 00 01 00 F4
 (1743356868.700747)  can0  11A   [8]  11 40 00 AA C0 00 00 73
 (1743356868.702934)  can0  1D4   [8]  F7 07 00 00 87 46 00 70
 (1743356868.704039)  can0  1DB   [8]  FF E0 B1 AA 00 00 00 34
 (1743356868.704097)  can0  1DC   [8]  6E 0D AF FD 0C CC D8 B5
 (1743356868.704099)  can0  1F2   [8]  10 64 00 00 00 1E 02 0E
 (1743356868.704101)  can0  5B9   [5]  11 86 63 C0 28
 (1743356868.705821)  can0  1DA   [8]  B3 64 18 00 00 01 01 71
 (1743356868.708954)  can0  56E   [1]  46
 (1743356868.710988)  can0  11A   [8]  11 40 00 55 00 00 01 65
 (1743356868.713083)  can0  1DB   [8]  FF C0 B1 AA 00 00 01 E0
 (1743356868.714273)  can0  1D4   [8]  F7 07 00 00 C7 46 00 B7
 (1743356868.714376)  can0  1DC   [8]  6E 0D AF FD 01 0C D5 6E
 (1743356868.714379)  can0  1F2   [8]  10 64 00 00 00 1E 03 0F
 (1743356868.714380)  can0  284   [8]  00 00 00 00 00 00 7F 05
 (1743356868.715787)  can0  1DA   [8]  B3 64 18 00 00 01 02 7B
 (1743356868.720977)  can0  11A   [8]  11 40 00 55 40 00 02 A8
 (1743356868.723045)  can0  1DB   [8]  FF C0 B1 AA 00 00 02 EA
 (1743356868.724135)  can0  1DC   [8]  6E 0D AF FD 05 08 C6 B2
 (1743356868.724229)  can0  1D4   [8]  F7 07 00 00 07 46 00 7B
 (1743356868.724232)  can0  1F2   [8]  10 64 00 00 00 1E 00 0C
 (1743356868.724234)  can0  50C   [6]  00 00 00 00 5D C8
 (1743356868.725829)  can0  1DA   [8]  B3 64 18 00 00 01 03 FE
 (1743356868.730753)  can0  380   [8]  02 04 10 21 00 00 00 B0
 (1743356868.730835)  can0  5BF   [8]  00 00 00 00 28 00 00 09
 (1743356868.731422)  can0  11A   [8]  11 40 00 AA 80 00 03 BE
 (1743356868.733302)  can0  1DB   [8]  FF C0 B1 AA 00 00 03 6F
 (1743356868.733987)  can0  1DC   [8]  6E 0D AF FD 08 C0 C3 F9
 (1743356868.733995)  can0  1D4   [8]  F7 07 00 00 47 46 00 BC
 (1743356868.734782)  can0  1F2   [8]  10 64 00 00 00 1E 01 0D
 (1743356868.734874)  can0  284   [8]  00 00 00 00 00 00 80 06
 (1743356868.734878)  can0  55B   [8]  5C 80 55 00 E7 80 11 B4
 (1743356868.735765)  can0  1DA   [8]  B3 64 18 00 00 01 00 F4
 (1743356868.736333)  can0  55A   [8]  00 3E 36 00 5F 3E 5B 08
 (1743356868.740517)  can0  11A   [8]  11 40 00 AA C0 00 00 73
 (1743356868.743484)  can0  1DB   [8]  FF C0 B1 AA 00 00 00 65
 (1743356868.743951)  can0  1DC   [8]  6E 0D AF FD 0C CC D8 B5
 (1743356868.744815)  can0  54A   [8]  12 00 70 02 00 00 00 2B
 (1743356868.744902)  can0  1D4   [8]  F7 07 00 00 87 46 00 70
 (1743356868.745115)  can0  1F2   [8]  10 64 00 00 00 1E 02 0E
 (1743356868.745175)  can0  50A   [6]  85 12 A0 11 80 A0
 (1743356868.745177)  can0  54B   [8]  01 08 80 12 04 00 00 00
 (1743356868.745655)  can0  54C   [8]  98 66 00 00 00 00 56 00
 (1743356868.746267)  can0  1DA   [8]  B3 64 18 00 00 01 01 71
 (1743356868.746782)  can0  54F   [8]  46 01 00 00 07 00 8C 49
 (1743356868.751145)  can0  11A   [8]  11 40 00 55 00 00 01 65
 (1743356868.753014)  can0  1DB   [8]  FF A0 B1 AA 00 00 01 13
 (1743356868.753605)  can0  1DC   [8]  6E 0D AF FD 01 0C D5 6E
 (1743356868.754795)  can0  1D4   [8]  F7 07 00 00 C7 46 00 B7
 (1743356868.754897)  can0  1F2   [8]  10 64 00 00 00 1E 03 0F
 (1743356868.754900)  can0  284   [8]  00 00 00 00 00 00 81 07
 (1743356868.755763)  can0  1DA   [8]  B3 64 18 00 00 01 02 7B
 (1743356868.761572)  can0  11A   [8]  11 40 00 55 40 00 02 A8
 (1743356868.763401)  can0  1DB   [8]  FF C0 B1 AA 00 00 02 EA
 (1743356868.763472)  can0  1DC   [8]  6E 0D AF FD 05 08 C6 B2
 (1743356868.764408)  can0  1D4   [8]  F7 07 00 00 07 46 00 7B
 (1743356868.765297)  can0  1F2   [8]  10 64 00 00 00 1E 00 0C
 (1743356868.765461)  can0  50B   [6]  00 00 06 C0 00 60
 (1743356868.765877)  can0  1DA   [8]  B3 64 18 00 00 01 03 FE
 (1743356868.771307)  can0  11A   [8]  11 40 00 AA 80 00 03 BE
 (1743356868.773424)  can0  1DB   [8]  FF C0 B1 AA 00 00 03 6F
 (1743356868.773536)  can0  1DC   [8]  6E 0D AF FD 08 C0 C3 F9
 (1743356868.775148)  can0  1D4   [8]  F7 07 00 00 47 46 00 BC
 (1743356868.775205)  can0  1F2   [8]  10 64 00 00 00 1E 01 0D
 (1743356868.776138)  can0  284   [8]  00 00 00 00 00 00 82 08
 (1743356868.776200)  can0  1DA   [8]  B3 64 18 00 00 01 00 F4
 (1743356868.780626)  can0  11A   [8]  11 40 00 AA C0 00 00 73
 (1743356868.783767)  can0  1DB   [8]  FF C0 B1 AA 00 00 00 65
 (1743356868.783842)  can0  1DC   [8]  6E 0D AF FD 0C CC D8 B5
 (1743356868.785046)  can0  1D4   [8]  F7 07 00 00 87 46 00 70
 (1743356868.785135)  can0  1F2   [8]  10 64 00 00 00 1E 02 0E
 (1743356868.785708)  can0  1DA   [8]  B3 64 18 00 00 01 01 71
 (1743356868.791300)  can0  11A   [8]  11 40 00 55 00 00 01 65
 (1743356868.793564)  can0  1DB   [8]  FF C0 B1 AA 00 00 01 E0
 (1743356868.793627)  can0  1DC   [8]  6E 0D AF FD 01 0C D5 6E
 (1743356868.795636)  can0  1D4   [8]  F7 07 00 00 C7 46 00 B7
 (1743356868.795871)  can0  1F2   [8]  10 64 00 00 00 1E 03 0F
 (1743356868.795874)  can0  284   [8]  00 00 00 00 00 00 83 09
 (1743356868.796031)  can0  1DA   [8]  B3 64 18 00 00 01 02 7B
 (1743356868.801561)  can0  11A   [8]  11 40 00 55 40 00 02 A8
 (1743356868.803685)  can0  1DB   [8]  FF C0 B1 AA 00 00 02 EA
 (1743356868.803750)  can0  1DC   [8]  6E 0D AF FD 05 08 C6 B2
 (1743356868.806357)  can0  1D4   [8]  F7 07 00 00 07 46 00 7B
 (1743356868.807351)  can0  1F2   [8]  10 64 00 00 00 1E 00 0C
 (1743356868.807445)  can0  1DA   [8]  B3 64 18 00 00 01 03 FE
 (1743356868.811432)  can0  11A   [8]  11 40 00 AA 80 00 03 BE
 (1743356868.811505)  can0  56E   [1]  46
 (1743356868.813564)  can0  1DB   [8]  FF C0 B1 AA 00 00 03 6F
 (1743356868.813660)  can0  1DC   [8]  6E 0D AF FD 08 C0 C3 F9
 (1743356868.816213)  can0  1D4   [8]  F7 07 00 00 47 46 00 BC
 (1743356868.816263)  can0  1DA   [8]  B3 64 18 00 00 01 00 F4
 (1743356868.816302)  can0  1F2   [8]  10 64 00 00 00 1E 01 0D
 (1743356868.816304)  can0  284   [8]  00 00 00 00 00 00 84 0A
 (1743356868.820506)  can0  11A   [8]  11 40 00 AA C0 00 00 73
 (1743356868.823265)  can0  1DB   [8]  FF C0 B1 AA 00 00 00 65
 (1743356868.823356)  can0  1DC   [8]  6E 0D AF FD 0C CC D8 B5
 (1743356868.826006)  can0  1DA   [8]  B3 64 18 00 00 01 01 71
 (1743356868.826162)  can0  1D4   [8]  F7 07 00 00 87 46 00 70
 (1743356868.826230)  can0  1F2   [8]  10 64 00 00 00 1E 02 0E
 (1743356868.826687)  can0  50C   [6]  00 00 00 01 B2 31
 (1743356868.831115)  can0  380   [8]  02 04 10 21 00 00 00 8D
 (1743356868.831197)  can0  5BF   [8]  00 00 00 00 28 00 00 1A
 (1743356868.831199)  can0  11A   [8]  11 40 00 55 00 00 01 65
 (1743356868.833593)  can0  1DB   [8]  FF C0 B1 AA 00 00 01 E0
 (1743356868.833637)  can0  1DC   [8]  6E 0D AF FD 01 0C D5 6E
 (1743356868.834003)  can0  55B   [8]  5C 80 55 00 E7 80 12 BE
 (1743356868.836086)  can0  1DA   [8]  B3 64 18 00 00 01 02 7B
 (1743356868.837066)  can0  55A   [8]  00 3E 36 00 5F 3E 5B 08
 (1743356868.837138)  can0  1D4   [8]  F7 07 00 00 C7 46 00 B7
 (1743356868.837141)  can0  1F2   [8]  10 64 00 00 00 1E 03 0F
 (1743356868.837143)  can0  284   [8]  00 00 00 00 00 00 85 0B
 (1743356868.847253)  can0  11A   [8]  11 40 00 55 40 00 02 A8
 (1743356868.847331)  can0  1DB   [8]  FF C0 B1 AA 00 00 02 EA
 (1743356868.847332)  can0  1DC   [8]  6E 0D AF FD 05 08 C6 B2
 (1743356868.847333)  can0  54A   [8]  A0 00 70 02 00 00 00 2B
 (1743356868.849449)  can0  54B   [8]  01 08 80 12 04 00 00 00
 (1743356868.849476)  can0  54C   [8]  98 66 00 00 00 00 56 00
 (1743356868.849477)  can0  1DA   [8]  B3 64 18 00 00 01 03 FE
 (1743356868.849478)  can0  1D4   [8]  F7 07 00 00 07 46 00 7B
 (1743356868.849479)  can0  1F2   [8]  10 64 00 00 00 1E 00 0C
 (1743356868.849479)  can0  50A   [6]  85 32 A0 11 80 A0
 (1743356868.849480)  can0  54F   [8]  46 01 00 00 07 40 8C 49
 (1743356868.850807)  can0  11A   [8]  11 40 00 AA 80 00 03 BE
 (1743356868.852866)  can0  1DB   [8]  FF E0 B1 AA 00 00 03 3E
 (1743356868.853178)  can0  1DC   [8]  6E 0D AF FD 08 C0 C3 F9
 (1743356868.855764)  can0  1DA   [8]  B3 64 18 00 00 01 00 F4
 (1743356868.857053)  can0  1D4   [8]  F7 07 00 00 47 46 00 BC
 (1743356868.857078)  can0  1F2   [8]  10 64 00 00 00 1E 01 0D
 (1743356868.857079)  can0  284   [8]  00 00 00 00 00 00 86 0C
 (1743356868.860871)  can0  11A   [8]  11 40 00 AA C0 00 00 73
 (1743356868.863467)  can0  1DB   [8]  FF C0 B1 AA 00 00 00 65
 (1743356868.863584)  can0  1DC   [8]  6E 0D AF FD 0C CC D8 B5
 (1743356868.865941)  can0  1DA   [8]  B3 64 18 00 00 01 01 71
 (1743356868.866814)  can0  1D4   [8]  F7 07 00 00 87 46 00 70
 (1743356868.867636)  can0  1F2   [8]  10 64 00 00 00 1E 02 0E
 (1743356868.867697)  can0  50B   [6]  00 00 06 C0 00 60
 (1743356868.871106)  can0  11A   [8]  11 40 00 55 00 00 01 65
 (1743356868.873425)  can0  1DB   [8]  FF C0 B1 AA 00 00 01 E0
 (1743356868.873517)  can0  1DC   [8]  6E 0D AF FD 01 0C D5 6E
 (1743356868.876123)  can0  1DA   [8]  B3 64 18 00 00 01 02 7B
 (1743356868.878117)  can0  1D4   [8]  F7 07 00 00 C7 46 00 B7
 (1743356868.878230)  can0  1F2   [8]  10 64 00 00 00 1E 03 0F
 (1743356868.878232)  can0  284   [8]  00 00 00 00 00 00 87 0D
 (1743356868.885912)  can0  11A   [8]  11 40 00 55 40 00 02 A8
 (1743356868.885962)  can0  1DB   [8]  FF C0 B1 AA 00 00 02 EA
 (1743356868.885963)  can0  1DC   [8]  6E 0D AF FD 05 08 C6 B2
 (1743356868.885974)  can0  1DA   [8]  B3 64 18 00 00 01 03 FE
 (1743356868.887061)  can0  1D4   [8]  F7 07 00 00 07 46 00 7B
 (1743356868.887332)  can0  1F2   [8]  10 64 00 00 00 1E 00 0C
 (1743356868.891228)  can0  11A   [8]  11 40 00 AA 80 00 03 BE
 (1743356868.893451)  can0  1DB   [8]  FF C0 B1 AA 00 00 03 6F
 (1743356868.893523)  can0  1DC   [8]  6E 0D AF FD 08 C0 C3 F9
 (1743356868.895817)  can0  1DA   [8]  B3 64 18 00 00 01 00 F4
 (1743356868.897367)  can0  1D4   [8]  F7 07 00 00 47 46 00 BC
 (1743356868.898178)  can0  1F2   [8]  10 64 00 00 00 1E 01 0D
 (1743356868.898225)  can0  284   [8]  00 00 00 00 00 00 88 0E
 (1743356868.900154)  can0  11A   [8]  11 40 00 AA C0 00 00 73
 (1743356868.902958)  can0  1DB   [8]  FF C0 B1 EA 00 00 00 FB
 (1743356868.903348)  can0  1DC   [8]  6E 0D AF FD 0C CC D8 B5
 (1743356868.905708)  can0  1DA   [8]  B3 64 18 00 00 01 01 71
 (1743356868.907665)  can0  1D4   [8]  F7 07 00 00 87 46 00 70
 (1743356868.907987)  can0  1F2   [8]  10 64 00 00 00 1E 02 0E
 (1743356868.910914)  can0  11A   [8]  11 40 00 55 00 00 01 65
 (1743356868.912865)  can0  56E   [1]  46
 (1743356868.913580)  can0  1DB   [8]  FF E0 B1 EA 00 00 01 2F
 (1743356868.913622)  can0  1DC   [8]  6E 0D AF FD 01 0C D5 6E
 (1743356868.915670)  can0  1DA   [8]  B3 64 18 00 00 01 02 7B
 (1743356868.918036)  can0  1D4   [8]  F7 07 00 00 C7 46 00 B7
 (1743356868.918780)  can0  1F2   [8]  10 64 00 00 00 1E 03 0F
 (1743356868.918873)  can0  284   [8]  00 00 00 00 00 00 89 0F
 (1743356868.920678)  can0  11A   [8]  11 40 00 55 40 00 02 A8
 (1743356868.922895)  can0  1DB   [8]  FF C0 B1 EA 00 00 02 74
 (1743356868.923265)  can0  1DC   [8]  6E 0D AF FD 05 08 C6 B2
 (1743356868.925669)  can0  1DA   [8]  B3 64 18 00 00 01 03 FE
 (1743356868.928741)  can0  1D4   [8]  F7 07 00 00 07 46 00 7B
 (1743356868.928802)  can0  1F2   [8]  10 64 00 00 00 1E 00 0C
 (1743356868.928804)  can0  50C   [6]  00 00 00 02 B2 0D
 (1743356868.930400)  can0  380   [8]  02 04 10 21 00 00 00 9E
 (1743356868.931171)  can0  5BF   [8]  00 00 00 00 28 00 00 2B
 (1743356868.931270)  can0  11A   [8]  11 40 00 AA 80 00 03 BE
 (1743356868.933136)  can0  1DB   [8]  FF E0 B1 EA 00 00 03 A0
 (1743356868.933755)  can0  1DC   [8]  6E 0D AF FD 08 C0 C3 F9
 (1743356868.933834)  can0  55B   [8]  5C 80 55 00 E7 80 13 3B
 (1743356868.935618)  can0  1DA   [8]  B3 64 18 00 00 01 00 F4
 (1743356868.935979)  can0  55A   [8]  00 3E 36 00 5F 3E 5B 08
 (1743356868.939068)  can0  1D4   [8]  F7 07 00 00 47 46 00 BC
 (1743356868.939131)  can0  1F2   [8]  10 64 00 00 00 1E 01 0D
 (1743356868.939134)  can0  284   [8]  00 00 00 00 00 00 8A 10
 (1743356868.940103)  can0  11A   [8]  11 40 00 AA C0 00 00 73
 (1743356868.943419)  can0  1DB   [8]  FF C0 B1 AA 00 00 00 65
 (1743356868.943492)  can0  1DC   [8]  6E 0D AF FD 0C CC D8 B5
 (1743356868.943859)  can0  54A   [8]  12 00 70 02 00 00 00 2B
 (1743356868.944711)  can0  54B   [8]  01 08 80 12 04 00 00 00
 (1743356868.945609)  can0  1DA   [8]  B3 64 18 00 00 01 01 71
 (1743356868.945901)  can0  54C   [8]  98 66 00 00 00 00 56 00
 (1743356868.946790)  can0  54F   [8]  46 01 00 00 07 80 8C 49
 (1743356868.948702)  can0  1D4   [8]  F7 07 00 00 87 46 00 70
 (1743356868.949212)  can0  1F2   [8]  10 64 00 00 00 1E 02 0E
 (1743356868.949266)  can0  50A   [6]  85 52 A0 11 80 A0
 (1743356868.950809)  can0  11A   [8]  11 40 00 55 00 00 01 65
 (1743356868.952932)  can0  1DB   [8]  FF C0 B1 AA 00 00 01 E0
 (1743356868.953224)  can0  1DC   [8]  6E 0D AF FD 01 0C D5 6E
 (1743356868.955710)  can0  1DA   [8]  B3 64 18 00 00 01 02 7B
 (1743356868.960351)  can0  1D4   [8]  F7 07 00 00 C7 46 00 B7
 (1743356868.962259)  can0  1F2   [8]  10 64 00 00 00 1E 03 0F
 (1743356868.962307)  can0  284   [8]  00 00 00 00 00 00 8B 11
 (1743356868.962308)  can0  11A   [8]  11 40 00 55 40 00 02 A8
 (1743356868.962951)  can0  1DB   [8]  FF C0 B1 AA 00 00 02 EA
 (1743356868.963709)  can0  1DC   [8]  6E 0D AF FD 05 08 C6 B2
 (1743356868.966102)  can0  1DA   [8]  B3 64 18 00 00 01 03 FE
 (1743356868.969119)  can0  1D4   [8]  F7 07 00 00 07 46 00 7B
 (1743356868.969458)  can0  1F2   [8]  10 64 00 00 00 1E 00 0C
 (1743356868.969492)  can0  50B   [6]  00 00 06 C0 00 60
 (1743356868.970705)  can0  11A   [8]  11 40 00 AA 80 00 03 BE
 (1743356868.972816)  can0  1DB   [8]  FF C0 B1 AA 00 00 03 6F
 (1743356868.973175)  can0  1DC   [8]  6E 0D AF FD 08 C0 C3 F9
 (1743356868.975827)  can0  1DA   [8]  B3 64 18 00 00 01 00 F4
 (1743356868.980066)  can0  1D4   [8]  F7 07 00 00 47 46 00 BC
 (1743356868.980270)  can0  1F2   [8]  10 64 00 00 00 1E 01 0D
 (1743356868.980273)  can0  284   [8]  00 00 00 00 00 00 8C 12
 (1743356868.980383)  can0  11A   [8]  11 40 00 AA C0 00 00 73
 (1743356868.982943)  can0  1DB   [8]  FF C0 B1 AA 00 00 00 65
 (1743356868.983374)  can0  1DC   [8]  6E 0D AF FD 0C CC D8 B5
 (1743356868.985751)  can0  1DA   [8]  B3 64 18 00 00 01 01 71
 (1743356868.989621)  can0  1D4   [8]  F7 07 00 00 87 46 00 70
 (1743356868.990011)  can0  1F2   [8]  10 64 00 00 00 1E 02 0E
 (1743356868.990857)  can0  11A   [8]  11 40 00 55 00 00 01 65
 (1743356868.993306)  can0  1DB   [8]  FF C0 B1 AA 00 00 01 E0
 (1743356868.993346)  can0  1DC   [8]  6E 0D AF FD 01 0C D5 6E
 (1743356868.995655)  can0  1DA   [8]  B3 64 18 00 00 01 02 7B
 (1743356868.999793)  can0  1D4   [8]  F7 07 00 00 C7 46 00 B7
 (1743356869.000070)  can0  1F2   [8]  10 64 00 00 00 1E 03 0F
 (1743356869.000462)  can0  284   [8]  00 00 00 00 00 00 8D 13
 (1743356869.000882)  can0  11A   [8]  11 40 00 55 40 00 02 A8
 (1743356869.002872)  can0  1DB   [8]  FF C0 B1 AA 00 00 02 EA
 (1743356869.003297)  can0  1DC   [8]  6E 0D AF FD 05 08 C6 B2
 (1743356869.005624)  can0  1DA   [8]  B3 64 18 00 00 01 03 FE
 (1743356869.010113)  can0  1D4   [8]  F7 07 00 00 07 46 00 7B
 (1743356869.010505)  can0  1F2   [8]  10 64 00 00 00 1E 00 0C
 (1743356869.010941)  can0  11A   [8]  11 40 00 AA 80 00 03 BE
 (1743356869.012879)  can0  1DB   [8]  FF C0 B1 AA 00 00 03 6F
 (1743356869.013307)  can0  1DC   [8]  6E 0D AF FD 08 C0 C3 F9
 (1743356869.014951)  can0  56E   [1]  46
 (1743356869.015738)  can0  1DA   [8]  B3 64 18 00 00 01 00 F4
 (1743356869.020211)  can0  11A   [8]  11 40 00 AA C0 00 00 73
 (1743356869.021339)  can0  1D4   [8]  F7 07 00 00 47 46 00 BC
 (1743356869.021398)  can0  1F2   [8]  10 64 00 00 00 1E 01 0D
 (1743356869.021400)  can0  284   [8]  00 00 00 00 00 00 8E 14
 (1743356869.023236)  can0  1DB   [8]  FF C0 B1 AA 00 00 00 65
 (1743356869.023300)  can0  1DC   [8]  6E 0D AF FD 0C CC D8 B5
 (1743356869.025808)  can0  1DA   [8]  B3 64 18 00 00 01 01 71
 (1743356869.030875)  can0  380   [8]  02 04 10 21 00 00 00 AF
 (1743356869.031878)  can0  1D4   [8]  F7 07 00 00 87 46 00 70
 (1743356869.032146)  can0  11A   [8]  11 40 00 55 00 00 01 65
 (1743356869.032219)  can0  1F2   [8]  10 64 00 00 00 1E 02 0E
 (1743356869.032222)  can0  284   [8]  00 00 00 00 00 00 8F 15
 (1743356869.032224)  can0  50C   [6]  00 00 00 03 B2 9A
 (1743356869.032225)  can0  5BF   [8]  00 00 00 00 28 00 00 3C
 (1743356869.033126)  can0  1DB   [8]  FF C0 B1 AA 00 00 01 E0
 (1743356869.033754)  can0  1DC   [8]  6E 0D AF FD 01 0C D5 6E
 (1743356869.033815)  can0  55B   [8]  5C 80 55 00 E7 80 10 31
 (1743356869.035602)  can0  1DA   [8]  B3 64 18 00 00 01 02 7B
 (1743356869.036030)  can0  55A   [8]  00 3E 36 00 5F 3E 5B 08
 (1743356869.040637)  can0  11A   [8]  11 40 00 55 40 00 02 A8
 (1743356869.041326)  can0  1D4   [8]  F7 07 00 00 C7 46 00 B7
 (1743356869.041425)  can0  1F2   [8]  10 64 00 00 00 1E 03 0F
 (1743356869.044010)  can0  1DB   [8]  FF C0 B1 EA 00 00 02 74
 (1743356869.045083)  can0  1DC   [8]  6E 0D AF FD 05 08 C6 B2
 (1743356869.045179)  can0  5BC   [8]  18 40 04 37 C8 05 21 86
 (1743356869.045182)  can0  54A   [8]  A0 00 70 02 00 00 00 2B
 (1743356869.045334)  can0  5C0   [8]  40 6E 70 DF C8 0C 00 00
 (1743356869.045368)  can0  54B   [8]  01 08 80 12 04 00 00 00
 (1743356869.045859)  can0  1DA   [8]  B3 64 18 00 00 01 03 FE
 (1743356869.046306)  can0  54C   [8]  98 66 00 00 00 00 56 00
 (1743356869.047208)  can0  54F   [8]  46 01 00 00 07 C0 8C 49
 (1743356869.050927)  can0  11A   [8]  11 40 00 AA 80 00 03 BE
 (1743356869.051807)  can0  1D4   [8]  F7 07 00 00 07 46 00 7B
 (1743356869.051872)  can0  1F2   [8]  10 64 00 00 00 1E 00 0C
 (1743356869.051905)  can0  284   [8]  00 00 00 00 00 00 90 16
 (1743356869.051907)  can0  50A   [6]  85 72 A0 11 80 A0
 (1743356869.053003)  can0  1DB   [8]  FF C0 B1 EA 00 00 03 F1
 (1743356869.053773)  can0  1DC   [8]  6E 0D AF FD 08 C0 C3 F9
 (1743356869.055629)  can0  1DA   [8]  B3 64 18 00 00 01 00 F4
 (1743356869.060610)  can0  11A   [8]  11 40 00 AA C0 00 00 73
 (1743356869.061902)  can0  1D4   [8]  F7 07 00 00 47 46 00 BC
 (1743356869.062064)  can0  1F2   [8]  10 64 00 00 00 1E 01 0D
 (1743356869.062926)  can0  1DB   [8]  FF C0 B1 EA 00 00 00 FB
 (1743356869.063427)  can0  1DC   [8]  6E 0D AF FD 0C CC D8 B5
 (1743356869.065739)  can0  1DA   [8]  B3 64 18 00 00 01 01 71
 (1743356869.070900)  can0  11A   [8]  11 40 00 55 00 00 01 65
 (1743356869.071537)  can0  1D4   [8]  F7 07 00 00 87 46 00 70
 (1743356869.072635)  can0  1F2   [8]  10 64 00 00 00 1E 02 0E
 (1743356869.072730)  can0  284   [8]  00 00 00 00 00 00 91 17
 (1743356869.072732)  can0  50B   [6]  00 00 06 C0 00 60
 (1743356869.073382)  can0  1DB   [8]  FF C0 B1 EA 00 00 01 7E
 (1743356869.073428)  can0  1DC   [8]  6E 0D AF FD 01 0C D5 6E
 (1743356869.075588)  can0  1DA   [8]  B3 64 18 00 00 01 02 7B
 (1743356869.080558)  can0  11A   [8]  11 40 00 55 40 00 02 A8
 (1743356869.081742)  can0  1D4   [8]  F7 07 00 00 C7 46 00 B7
 (1743356869.082120)  can0  1F2   [8]  10 64 00 00 00 1E 03 0F
 (1743356869.082874)  can0  1DB   [8]  FF C0 B1 EA 00 00 02 74
 (1743356869.083255)  can0  1DC   [8]  6E 0D AF FD 05 08 C6 B2
 (1743356869.085694)  can0  1DA   [8]  B3 64 18 00 00 01 03 FE
 (1743356869.091006)  can0  11A   [8]  11 40 00 AA 80 00 03 BE
 (1743356869.091986)  can0  1D4   [8]  F7 07 00 00 07 46 00 7B
 (1743356869.092724)  can0  1F2   [8]  10 64 00 00 00 1E 00 0C
 (1743356869.093493)  can0  284   [8]  00 00 00 00 00 00 92 18
 (1743356869.093567)  can0  1DB   [8]  FF C0 B1 EA 00 00 03 F1
 (1743356869.093570)  can0  1DC   [8]  6E 0D AF FD 08 C0 C3 F9
 (1743356869.095828)  can0  1DA   [8]  B3 64 18 00 00 01 00 F4
 (1743356869.100334)  can0  11A   [8]  11 40 00 AA C0 00 00 73
 (1743356869.102335)  can0  1D4   [8]  F7 07 00 00 47 46 00 BC
 (1743356869.102832)  can0  1F2   [8]  10 64 00 00 00 1E 01 0D
 (1743356869.103590)  can0  1DB   [8]  FF C0 B1 EA 00 00 00 FB
 (1743356869.103650)  can0  1DC   [8]  6E 0D AF FD 0C CC D8 B5
 (1743356869.105819)  can0  1DA   [8]  B3 64 18 00 00 01 01 71
 (1743356869.111190)  can0  11A   [8]  11 40 00 55 00 00 01 65
 (1743356869.112571)  can0  1D4   [8]  F7 07 00 00 87 46 00 70
 (1743356869.113714)  can0  1F2   [8]  10 64 00 00 00 1E 02 0E
 (1743356869.113751)  can0  1DB   [8]  FF C0 B1 EA 00 00 01 7E
 (1743356869.113753)  can0  1DC   [8]  6E 0D AF FD 01 0C D5 6E
 (1743356869.113754)  can0  284   [8]  00 00 00 00 00 00 93 19
 (1743356869.115987)  can0  1DA   [8]  B3 64 18 00 00 01 02 7B
 (1743356869.116775)  can0  56E   [1]  46
 (1743356869.121175)  can0  11A   [8]  11 40 00 55 40 00 02 A8
 (1743356869.122938)  can0  1D4   [8]  F7 07 00 00 C7 46 00 B7
 (1743356869.123662)  can0  1DB   [8]  FF C0 B1 EA 00 00 02 74
 (1743356869.123690)  can0  1DC   [8]  6E 0D AF FD 05 08 C6 B2
 (1743356869.124316)  can0  1F2   [8]  10 64 00 00 00 1E 03 0F
 (1743356869.125853)  can0  1DA   [8]  B3 64 18 00 00 01 03 FE
 (1743356869.131670)  can0  380   [8]  02 04 10 21 00 00 00 B0
 (1743356869.131787)  can0  5BF   [8]  00 00 00 00 28 00 00 09
 (1743356869.131791)  can0  11A   [8]  11 40 00 AA 80 00 03 BE
 (1743356869.133844)  can0  1DB   [8]  FF C0 B1 EA 00 00 03 F1
 (1743356869.133886)  can0  1D4   [8]  F7 07 00 00 07 46 00 7B
 (1743356869.133906)  can0  1DC   [8]  6E 0D AF FD 08 C0 C3 F9
 (1743356869.133908)  can0  1F2   [8]  10 64 00 00 00 1E 00 0C
 (1743356869.134646)  can0  284   [8]  00 00 00 00 00 00 94 1A
 (1743356869.134701)  can0  50C   [6]  00 00 00 00 B2 A6
 (1743356869.134703)  can0  55B   [8]  5C 80 55 00 E7 80 11 B4
 (1743356869.135639)  can0  1DA   [8]  B3 64 18 00 00 01 00 F4
 (1743356869.136013)  can0  55A   [8]  00 3E 36 00 5F 3E 5B 08
 (1743356869.140164)  can0  11A   [8]  11 40 00 AA C0 00 00 73
 (1743356869.142955)  can0  1DB   [8]  FF C0 B1 EA 00 00 00 FB
 (1743356869.143883)  can0  1DC   [8]  6E 0D AF FD 0C CC D8 B5
 (1743356869.143944)  can0  1D4   [8]  F7 07 00 00 47 46 00 BC
 (1743356869.143946)  can0  1F2   [8]  10 64 00 00 00 1E 01 0D
 (1743356869.144266)  can0  5A9   [8]  80 09 10 09 42 40 00 00
 (1743356869.144284)  can0  54A   [8]  12 00 70 02 00 00 00 2B
 (1743356869.144903)  can0  54B   [8]  01 08 80 12 04 00 00 00
 (1743356869.146206)  can0  1DA   [8]  B3 64 18 00 00 01 01 71
 (1743356869.146257)  can0  54C   [8]  98 66 00 00 00 00 56 00
 (1743356869.146922)  can0  54F   [8]  46 01 00 00 07 00 8C 49
 (1743356869.150929)  can0  11A   [8]  11 40 00 55 00 00 01 65
 (1743356869.152939)  can0  1DB   [8]  FF C0 B1 EA 00 00 01 7E
 (1743356869.153324)  can0  1DC   [8]  6E 0D AF FD 01 0C D5 6E
 (1743356869.153904)  can0  1D4   [8]  F7 07 00 00 87 46 00 70
 (1743356869.153966)  can0  1F2   [8]  10 64 00 00 00 1E 02 0E
 (1743356869.154447)  can0  284   [8]  00 00 00 00 00 00 95 1B
 (1743356869.154502)  can0  50A   [6]  85 12 A0 11 80 A0
 (1743356869.155588)  can0  1DA   [8]  B3 64 18 00 00 01 02 7B
 (1743356869.160968)  can0  11A   [8]  11 40 00 55 40 00 02 A8
 (1743356869.164504)  can0  1DB   [8]  FF C0 B1 EA 00 00 02 74
 (1743356869.164601)  can0  1DC   [8]  6E 0D AF FD 05 08 C6 B2
 (1743356869.164603)  can0  1D4   [8]  F7 07 00 00 C7 46 00 B7
 (1743356869.164604)  can0  1F2   [8]  10 64 00 00 00 1E 03 0F
 (1743356869.165736)  can0  1DA   [8]  B3 64 18 00 00 01 03 FE
 (1743356869.171118)  can0  11A   [8]  11 40 00 AA 80 00 03 BE
 (1743356869.173239)  can0  1DB   [8]  FF C0 B1 EA 00 00 03 F1
 (1743356869.173288)  can0  1DC   [8]  6E 0D AF FD 08 C0 C3 F9
 (1743356869.173981)  can0  1D4   [8]  F7 07 00 00 07 46 00 7B
 (1743356869.174748)  can0  1F2   [8]  10 64 00 00 00 1E 00 0C
 (1743356869.174817)  can0  284   [8]  00 00 00 00 00 00 96 1C
 (1743356869.174819)  can0  50B   [6]  00 00 06 C0 00 60
 (1743356869.175600)  can0  1DA   [8]  B3 64 18 00 00 01 00 F4
 (1743356869.180154)  can0  11A   [8]  11 40 00 AA C0 00 00 73
 (1743356869.183384)  can0  1DB   [8]  FF C0 B1 EA 00 00 00 FB
 (1743356869.183469)  can0  1DC   [8]  6E 0D AF FD 0C CC D8 B5
 (1743356869.184164)  can0  1D4   [8]  F7 07 00 00 47 46 00 BC
 (1743356869.184561)  can0  1F2   [8]  10 64 00 00 00 1E 01 0D
 (1743356869.185597)  can0  1DA   [8]  B3 64 18 00 00 01 01 71
 (1743356869.190936)  can0  11A   [8]  11 40 00 55 00 00 01 65
 (1743356869.193363)  can0  1DB   [8]  FF C0 B1 EA 00 00 01 7E
 (1743356869.193415)  can0  1DC   [8]  6E 0D AF FD 01 0C D5 6E
 (1743356869.195337)  can0  1D4   [8]  F7 07 00 00 87 46 00 70
 (1743356869.195396)  can0  1F2   [8]  10 64 00 00 00 1E 02 0E
 (1743356869.195398)  can0  284   [8]  00 00 00 00 00 00 97 1D
 (1743356869.195934)  can0  1DA   [8]  B3 64 18 00 00 01 02 7B
 (1743356869.200731)  can0  11A   [8]  11 40 00 55 40 00 02 A8
 (1743356869.203052)  can0  1DB   [8]  FF E0 B1 EA 00 00 02 25
 (1743356869.203605)  can0  1DC   [8]  6E 0D AF FD 05 08 C6 B2
 (1743356869.204801)  can0  1D4   [8]  F7 07 00 00 C7 46 00 B7
 (1743356869.205480)  can0  1F2   [8]  10 64 00 00 00 1E 03 0F
 (1743356869.205886)  can0  1DA   [8]  B3 64 18 00 00 01 03 FE
 (1743356869.210869)  can0  11A   [8]  11 40 00 AA 80 00 03 BE
 (1743356869.213006)  can0  1DB   [8]  FF E0 B1 EA 00 00 03 A0
 (1743356869.213519)  can0  1DC   [8]  6E 0D AF FD 08 C0 C3 F9
 (1743356869.214950)  can0  1D4   [8]  F7 07 00 00 07 46 00 7B
 (1743356869.215735)  can0  1F2   [8]  10 64 00 00 00 1E 00 0C
 (1743356869.215901)  can0  284   [8]  00 00 00 00 00 00 98 1E
 (1743356869.215904)  can0  1DA   [8]  B3 64 18 00 00 01 00 F4
 (1743356869.215993)  can0  5B9   [5]  11 86 63 C0 28
 (1743356869.218782)  can0  56E   [1]  46
 (1743356869.220204)  can0  11A   [8]  11 40 00 AA C0 00 00 73
 (1743356869.222891)  can0  1DB   [8]  FF E0 B1 EA 00 00 00 AA
 (1743356869.223351)  can0  1DC   [8]  6E 0D AF FD 0C CC D8 B5
 (1743356869.225229)  can0  1D4   [8]  F7 07 00 00 47 46 00 BC
 (1743356869.225914)  can0  1F2   [8]  10 64 00 00 00 1E 01 0D
 (1743356869.225979)  can0  1DA   [8]  B3 64 18 00 00 01 01 71
 (1743356869.231743)  can0  380   [8]  02 04 10 21 00 00 00 8D
 (1743356869.231859)  can0  11A   [8]  11 40 00 55 00 00 01 65
 (1743356869.231862)  can0  5BF   [8]  00 00 00 00 28 00 00 1A
 (1743356869.233244)  can0  1DB   [8]  FF E0 B1 EA 00 00 01 2F
 (1743356869.234147)  can0  1DC   [8]  6E 0D AF FD 01 0C D5 6E
 (1743356869.234230)  can0  55B   [8]  5C 80 AA 00 E7 80 12 F9
 (1743356869.235631)  can0  1D4   [8]  F7 07 00 00 87 46 00 70
 (1743356869.237024)  can0  1DA   [8]  B3 64 18 00 00 01 02 7B
 (1743356869.237095)  can0  1F2   [8]  10 64 00 00 00 1E 02 0E
 (1743356869.237098)  can0  284   [8]  00 00 00 00 00 00 99 1F
 (1743356869.237100)  can0  50C   [6]  00 00 00 01 B2 31
 (1743356869.237101)  can0  55A   [8]  00 3E 36 00 5F 3E 5B 08
 (1743356869.240683)  can0  11A   [8]  11 40 00 55 40 00 02 A8
 (1743356869.242988)  can0  1DB   [8]  FF E0 B1 AA 00 00 02 BB
 (1743356869.243477)  can0  1DC   [8]  6E 0D AF FD 05 08 C6 B2
 (1743356869.244104)  can0  54A   [8]  A0 00 70 02 00 00 00 2B
 (1743356869.245035)  can0  54B   [8]  01 08 80 12 04 00 00 00
 (1743356869.245756)  can0  1DA   [8]  B3 64 18 00 00 01 03 FE
 (1743356869.247034)  can0  1D4   [8]  F7 07 00 00 C7 46 00 B7
 (1743356869.247284)  can0  1F2   [8]  10 64 00 00 00 1E 03 0F
 (1743356869.247312)  can0  54C   [8]  98 66 00 00 00 00 56 00
 (1743356869.247443)  can0  54F   [8]  46 01 00 00 07 40 8C 49
 (1743356869.250986)  can0  11A   [8]  11 40 00 AA 80 00 03 BE
 (1743356869.252856)  can0  1DB   [8]  FF E0 B1 AA 00 00 03 3E
 (1743356869.253327)  can0  1DC   [8]  6E 0D AF FD 08 C0 C3 F9
 (1743356869.255780)  can0  1DA   [8]  B3 64 18 00 00 01 00 F4
 (1743356869.257054)  can0  1D4   [8]  F7 07 00 00 07 46 00 7B
 (1743356869.257124)  can0  1F2   [8]  10 64 00 00 00 1E 00 0C
 (1743356869.257153)  can0  284   [8]  00 00 00 00 00 00 9A 20
 (1743356869.257155)  can0  50A   [6]  85 32 A0 11 80 A0
 (1743356869.260441)  can0  11A   [8]  11 40 00 AA C0 00 00 73
 (1743356869.263389)  can0  1DB   [8]  FF E0 B1 AA 00 00 00 34
 (1743356869.263455)  can0  1DC   [8]  6E 0D AF FD 0C CC D8 B5
 (1743356869.265798)  can0  1DA   [8]  B3 64 18 00 00 01 01 71
 (1743356869.266281)  can0  1D4   [8]  F7 07 00 00 47 46 00 BC
 (1743356869.266898)  can0  1F2   [8]  10 64 00 00 00 1E 01 0D
 (1743356869.270991)  can0  11A   [8]  11 40 00 55 00 00 01 65
 (1743356869.273004)  can0  1DB   [8]  FF E0 B1 AA 00 00 01 B1
 (1743356869.273583)  can0  1DC   [8]  6E 0D AF FD 01 0C D5 6E
 (1743356869.275671)  can0  1DA   [8]  B3 64 18 00 00 01 02 7B
 (1743356869.276567)  can0  1D4   [8]  F7 07 00 00 87 46 00 70
 (1743356869.277569)  can0  1F2   [8]  10 64 00 00 00 1E 02 0E
 (1743356869.277660)  can0  284   [8]  00 00 00 00 00 00 9B 21
 (1743356869.277663)  can0  50B   [6]  00 00 06 C0 00 60
 (1743356869.280693)  can0  11A   [8]  11 40 00 55 40 00 02 A8
 (1743356869.283622)  can0  1DB   [8]  FF E0 B1 AA 00 00 02 BB
 (1743356869.283723)  can0  1DC   [8]  6E 0D AF FD 05 08 C6 B2
 (1743356869.285724)  can0  1DA   [8]  B3 64 18 00 00 01 03 FE
 (1743356869.286717)  can0  1D4   [8]  F7 07 00 00 C7 46 00 B7
 (1743356869.287210)  can0  1F2   [8]  10 64 00 00 00 1E 03 0F
 (1743356869.291092)  can0  11A   [8]  11 40 00 AA 80 00 03 BE
 (1743356869.293575)  can0  1DB   [8]  FF E0 B1 AA 00 00 03 3E
 (1743356869.293673)  can0  1DC   [8]  6E 0D AF FD 08 C0 C3 F9
 (1743356869.295817)  can0  1DA   [8]  B3 64 18 00 00 01 00 F4
