 (1743344803.497776)  can0  1D4   [8]  F7 07 00 00 C7 46 00 B7
 (1743344803.497937)  can0  1F2   [8]  10 64 00 00 00 1E 03 0F
 (1743344803.498013)  can0  284   [8]  00 00 00 00 00 00 99 1F
 (1743344803.499328)  can0  11A   [8]  01 40 00 AA C0 00 00 03
 (1743344803.501785)  can0  1DB   [8]  FF E0 C6 6A 00 00 03 68
 (1743344803.501979)  can0  1DC   [8]  6E 00 0F FD 08 C0 C3 F1
 (1743344803.503198)  can0  1DA   [8]  C8 64 18 00 00 01 01 95
 (1743344803.506114)  can0  79B   [8]  02 21 04 00 00 00 00 00
 (1743344803.507768)  can0  1D4   [8]  F7 07 00 00 07 46 00 7B
 (1743344803.508051)  can0  1F2   [8]  10 64 00 00 00 1E 00 0C
 (1743344803.508312)  can0  50B   [6]  00 00 06 C0 00 60
 (1743344803.510080)  can0  11A   [8]  01 40 00 55 00 00 01 15
 (1743344803.512147)  can0  1DB   [8]  FF E0 C6 6A 00 00 00 62
 (1743344803.512184)  can0  1DC   [8]  6E 00 0F FD 0C CC D8 BD
 (1743344803.513187)  can0  1DA   [8]  C8 64 18 00 00 01 02 9F
 (1743344803.515658)  can0  7BB   [8]  10 10 61 04 02 5F 0B 02
 (1743344803.516414)  can0  79B   [8]  30 00 00 00 00 00 00 00
 (1743344803.517964)  can0  1D4   [8]  F7 07 00 00 47 46 00 BC
 (1743344803.518182)  can0  1F2   [8]  10 64 00 00 00 1E 01 0D
 (1743344803.518461)  can0  284   [8]  00 00 00 00 00 00 9A 20
 (1743344803.519747)  can0  11A   [8]  01 40 00 55 40 00 02 D8
 (1743344803.521987)  can0  1DB   [8]  FF C0 C6 6A 00 00 01 B6
 (1743344803.522211)  can0  1DC   [8]  6E 00 0F FD 01 0C D5 66
 (1743344803.522437)  can0  55B   [8]  EF C0 55 00 E7 00 10 3F
 (1743344803.523320)  can0  1DA   [8]  C8 64 18 00 00 01 03 1A
 (1743344803.527727)  can0  7BB   [8]  21 6A 0A 02 65 0A 02 6B
 (1743344803.528247)  can0  1D4   [8]  F7 07 00 00 87 46 00 70
 (1743344803.528497)  can0  1F2   [8]  10 64 00 00 00 1E 02 0E
 (1743344803.530041)  can0  11A   [8]  01 40 00 AA 80 00 03 CE
 (1743344803.532446)  can0  1DB   [8]  FF C0 C6 6A 00 00 02 BC
 (1743344803.532481)  can0  1DC   [8]  6E 00 0F FD 05 08 C6 BA
 (1743344803.532805)  can0  5BC   [8]  46 C3 2C 32 C8 06 40 00
 (1743344803.532836)  can0  5C0   [8]  C0 64 64 00 C8 DC 00 00
 (1743344803.533197)  can0  1DA   [8]  C8 64 18 00 00 01 00 10
 (1743344803.536012)  can0  7BB   [8]  22 0A 0A 00 FF FF FF FF
 (1743344803.538584)  can0  1D4   [8]  F7 07 00 00 C7 46 00 B7
 (1743344803.538803)  can0  1F2   [8]  10 64 00 00 00 1E 03 0F
 (1743344803.538992)  can0  284   [8]  00 00 00 00 00 00 9B 21
 (1743344803.539285)  can0  11A   [8]  01 40 00 AA C0 00 00 03
 (1743344803.542018)  can0  1DB   [8]  FF E0 C6 6A 00 00 03 68
 (1743344803.542130)  can0  1DC   [8]  6E 00 0F FD 08 C0 C3 F1
 (1743344803.543478)  can0  1DA   [8]  C8 64 18 00 00 01 01 95
 (1743344803.548865)  can0  1D4   [8]  F7 07 00 00 07 46 00 7B
 (1743344803.549373)  can0  1F2   [8]  10 64 00 00 00 1E 00 0C
 (1743344803.549425)  can0  5B9   [5]  60 0A 60 0A 28
 (1743344803.550083)  can0  11A   [8]  01 40 00 55 00 00 01 15
 (1743344803.551133)  can0  54A   [8]  A0 00 70 02 00 00 00 36
 (1743344803.551831)  can0  1DB   [8]  FF E0 C6 6A 00 00 00 62
 (1743344803.552175)  can0  1DC   [8]  6E 00 0F FD 0C CC D8 BD
 (1743344803.552458)  can0  54B   [8]  01 08 80 12 04 00 00 00
 (1743344803.553198)  can0  54C   [8]  93 66 00 00 00 00 6C 00
 (1743344803.553475)  can0  1DA   [8]  C8 64 18 00 00 01 02 9F
 (1743344803.554137)  can0  54F   [8]  35 01 00 00 07 C0 88 34
 (1743344803.559699)  can0  1D4   [8]  F7 07 00 00 47 46 00 BC
 (1743344803.559756)  can0  1F2   [8]  10 64 00 00 00 1E 01 0D
 (1743344803.559792)  can0  284   [8]  00 00 00 00 00 00 9C 22
 (1743344803.560149)  can0  11A   [8]  01 40 00 55 40 00 02 D8
 (1743344803.561805)  can0  1DB   [8]  FF E0 C6 6A 00 00 01 E7
 (1743344803.562094)  can0  1DC   [8]  6E 00 0F FD 01 0C D5 66
 (1743344803.563303)  can0  1DA   [8]  C8 64 18 00 00 01 03 1A
 (1743344803.566185)  can0  56E   [1]  46
 (1743344803.569542)  can0  1D4   [8]  F7 07 00 00 87 46 00 70
 (1743344803.569592)  can0  1F2   [8]  10 64 00 00 00 1E 02 0E
 (1743344803.569849)  can0  50C   [6]  00 00 00 03 B2 9A
 (1743344803.570156)  can0  11A   [8]  01 40 00 AA 80 00 03 CE
 (1743344803.571796)  can0  1DB   [8]  FF E0 C6 6A 00 00 02 ED
 (1743344803.572101)  can0  1DC   [8]  6E 00 0F FD 05 08 C6 BA
 (1743344803.573283)  can0  1DA   [8]  C8 64 18 00 00 01 00 10
 (1743344803.573558)  can0  55A   [8]  00 38 35 00 5F 38 5B 08
 (1743344803.579230)  can0  380   [8]  02 04 10 21 00 00 00 AF
 (1743344803.579419)  can0  5BF   [8]  00 00 00 00 28 00 00 3C
 (1743344803.579881)  can0  11A   [8]  01 40 00 AA C0 00 00 03
 (1743344803.580360)  can0  1D4   [8]  F7 07 00 00 C7 46 00 B7
 (1743344803.580381)  can0  1F2   [8]  10 64 00 00 00 1E 03 0F
 (1743344803.580382)  can0  284   [8]  00 00 00 00 00 00 9D 23
 (1743344803.581933)  can0  1DB   [8]  FF C0 C6 6A 00 00 03 39
 (1743344803.582335)  can0  1DC   [8]  6E 00 0F FD 08 C0 C3 F1
 (1743344803.583401)  can0  1DA   [8]  C8 64 18 00 00 01 01 95
 (1743344803.590785)  can0  1D4   [8]  F7 07 00 00 07 46 00 7B
 (1743344803.590878)  can0  1F2   [8]  10 64 00 00 00 1E 00 0C
 (1743344803.590881)  can0  11A   [8]  01 40 00 55 00 00 01 15
 (1743344803.590957)  can0  50A   [6]  85 72 A0 15 80 A0
 (1743344803.592007)  can0  1DB   [8]  FF C0 C6 6A 00 00 00 33
 (1743344803.592622)  can0  1DC   [8]  6E 00 0F FD 0C CC D8 BD
 (1743344803.593534)  can0  1DA   [8]  C8 64 18 00 00 01 02 9F
 (1743344803.601144)  can0  11A   [8]  01 40 00 55 40 00 02 D8
 (1743344803.601263)  can0  1D4   [8]  F7 07 00 00 47 46 00 BC
 (1743344803.601266)  can0  1F2   [8]  10 64 00 00 00 1E 01 0D
 (1743344803.601268)  can0  284   [8]  00 00 00 00 00 00 9E 24
 (1743344803.602440)  can0  1DB   [8]  FF C0 C6 6A 00 00 01 B6
 (1743344803.602535)  can0  1DC   [8]  6E 00 0F FD 01 0C D5 66
 (1743344803.603449)  can0  1DA   [8]  C8 64 18 00 00 01 03 1A
 (1743344803.611504)  can0  11A   [8]  01 40 00 AA 80 00 03 CE
 (1743344803.611678)  can0  1D4   [8]  F7 07 00 00 87 46 00 70
 (1743344803.611681)  can0  1F2   [8]  10 64 00 00 00 1E 02 0E
 (1743344803.611683)  can0  50B   [6]  00 00 06 C0 00 60
 (1743344803.612807)  can0  1DB   [8]  FF C0 C6 6A 00 00 02 BC
 (1743344803.612870)  can0  1DC   [8]  6E 00 0F FD 05 08 C6 BA
 (1743344803.613531)  can0  1DA   [8]  C8 64 18 00 00 01 00 10
 (1743344803.619864)  can0  11A   [8]  01 40 00 AA C0 00 00 03
 (1743344803.620616)  can0  1D4   [8]  F7 07 00 00 C7 46 00 B7
 (1743344803.621452)  can0  1F2   [8]  10 64 00 00 00 1E 03 0F
 (1743344803.621511)  can0  284   [8]  00 00 00 00 00 00 9F 25
 (1743344803.622168)  can0  1DB   [8]  FF C0 C6 6A 00 00 03 39
 (1743344803.623271)  can0  1DC   [8]  6E 00 0F FD 08 C0 C3 F1
 (1743344803.623363)  can0  55B   [8]  EF C0 55 00 E7 00 11 BA
 (1743344803.623929)  can0  1DA   [8]  C8 64 18 00 00 01 01 95
 (1743344803.631146)  can0  11A   [8]  01 40 00 55 00 00 01 15
 (1743344803.631193)  can0  1D4   [8]  F7 07 00 00 07 46 00 7B
 (1743344803.631503)  can0  1F2   [8]  10 64 00 00 00 1E 00 0C
 (1743344803.632116)  can0  1DB   [8]  FF C0 C6 6A 00 00 00 33
 (1743344803.632179)  can0  1DC   [8]  6E 00 0F FD 0C CC D8 BD
 (1743344803.633171)  can0  1DA   [8]  C8 64 18 00 00 01 02 9F
 (1743344803.639980)  can0  11A   [8]  01 40 00 55 40 00 02 D8
 (1743344803.641182)  can0  1D4   [8]  F7 07 00 00 47 46 00 BC
 (1743344803.641974)  can0  1F2   [8]  10 64 00 00 00 1E 01 0D
 (1743344803.643243)  can0  284   [8]  00 00 00 00 00 00 A0 26
 (1743344803.643299)  can0  1DB   [8]  FF C0 C6 6A 00 00 01 B6
 (1743344803.643301)  can0  1DC   [8]  6E 00 0F FD 01 0C D5 66
 (1743344803.643989)  can0  1DA   [8]  C8 64 18 00 00 01 03 1A
 (1743344803.650525)  can0  11A   [8]  01 40 00 AA 80 00 03 CE
 (1743344803.651366)  can0  1D4   [8]  F7 07 00 00 87 46 00 70
 (1743344803.652681)  can0  1F2   [8]  10 64 00 00 00 1E 02 0E
 (1743344803.652752)  can0  54A   [8]  12 00 70 02 00 00 00 36
 (1743344803.652755)  can0  1DB   [8]  FF C0 C6 6A 00 00 02 BC
 (1743344803.652757)  can0  1DC   [8]  6E 00 0F FD 05 08 C6 BA
 (1743344803.652844)  can0  54B   [8]  01 08 80 12 04 00 00 00
 (1743344803.653405)  can0  54C   [8]  93 66 00 00 00 00 6C 00
 (1743344803.654065)  can0  1DA   [8]  C8 64 18 00 00 01 00 10
 (1743344803.654617)  can0  54F   [8]  35 01 00 00 07 00 88 34
 (1743344803.659720)  can0  11A   [8]  01 40 00 AA C0 00 00 03
 (1743344803.661681)  can0  1D4   [8]  F7 07 00 00 C7 46 00 B7
 (1743344803.662779)  can0  1F2   [8]  10 64 00 00 00 1E 03 0F
 (1743344803.662864)  can0  1DB   [8]  FF C0 C6 6A 00 00 03 39
 (1743344803.662867)  can0  1DC   [8]  6E 00 0F FD 08 C0 C3 F1
 (1743344803.662868)  can0  284   [8]  00 00 00 00 00 00 A1 27
 (1743344803.663291)  can0  1DA   [8]  C8 64 18 00 00 01 01 95
 (1743344803.668295)  can0  56E   [1]  46
 (1743344803.670131)  can0  11A   [8]  01 40 00 55 00 00 01 15
 (1743344803.671705)  can0  1D4   [8]  F7 07 00 00 07 46 00 7B
 (1743344803.672688)  can0  1DB   [8]  FF C0 C6 6A 00 00 00 33
 (1743344803.672745)  can0  1DC   [8]  6E 00 0F FD 0C CC D8 BD
 (1743344803.672748)  can0  1F2   [8]  10 64 00 00 00 1E 00 0C
 (1743344803.672770)  can0  50C   [6]  00 00 00 00 B2 A6
 (1743344803.673375)  can0  1DA   [8]  C8 64 18 00 00 01 02 9F
 (1743344803.673776)  can0  55A   [8]  00 38 35 00 5F 38 5B 08
 (1743344803.679718)  can0  380   [8]  02 04 10 21 00 00 00 B0
 (1743344803.680140)  can0  5BF   [8]  00 00 00 00 28 00 00 09
 (1743344803.680264)  can0  11A   [8]  01 40 00 55 40 00 02 D8
 (1743344803.683235)  can0  1DB   [8]  FF A0 C6 6A 00 00 01 45
 (1743344803.683482)  can0  1D4   [8]  F7 07 00 00 47 46 00 BC
 (1743344803.683486)  can0  1DC   [8]  6E 00 0F FD 01 0C D5 66
 (1743344803.683487)  can0  1F2   [8]  10 64 00 00 00 1E 01 0D
 (1743344803.683489)  can0  284   [8]  00 00 00 00 00 00 A2 28
 (1743344803.683619)  can0  1DA   [8]  C8 64 18 00 00 01 03 1A
 (1743344803.690490)  can0  11A   [8]  01 40 00 AA 80 00 03 CE
 (1743344803.693181)  can0  1DB   [8]  FF A0 C6 6A 00 00 02 4F
 (1743344803.693250)  can0  1DC   [8]  6E 00 0F FD 05 08 C6 BA
 (1743344803.693252)  can0  1D4   [8]  F7 07 00 00 87 46 00 70
 (1743344803.693254)  can0  1F2   [8]  10 64 00 00 00 1E 02 0E
 (1743344803.693256)  can0  50A   [6]  85 12 A0 15 80 A0
 (1743344803.694018)  can0  1DA   [8]  C8 64 18 00 00 01 00 10
 (1743344803.699790)  can0  11A   [8]  01 40 00 AA C0 00 00 03
 (1743344803.705125)  can0  1DB   [8]  FF C0 C6 6A 00 00 03 39
 (1743344803.705397)  can0  1DC   [8]  6E 00 0F FD 08 C0 C3 F1
 (1743344803.705401)  can0  1D4   [8]  F7 07 00 00 C7 46 00 B7
 (1743344803.705403)  can0  1F2   [8]  10 64 00 00 00 1E 03 0F
 (1743344803.705405)  can0  284   [8]  00 00 00 00 00 00 A3 29
 (1743344803.705406)  can0  1DA   [8]  C8 64 18 00 00 01 01 95
 (1743344803.710608)  can0  11A   [8]  01 40 00 55 00 00 01 15
 (1743344803.712477)  can0  1DB   [8]  FF A0 C6 6A 00 00 00 C0
 (1743344803.712539)  can0  1DC   [8]  6E 00 0F FD 0C CC D8 BD
 (1743344803.713831)  can0  1D4   [8]  F7 07 00 00 07 46 00 7B
 (1743344803.713889)  can0  1F2   [8]  10 64 00 00 00 1E 00 0C
 (1743344803.713891)  can0  50B   [6]  00 00 06 C0 00 60
 (1743344803.713893)  can0  1DA   [8]  C8 64 18 00 00 01 02 9F
 (1743344803.720548)  can0  11A   [8]  01 40 00 55 40 00 02 D8
 (1743344803.722207)  can0  1DB   [8]  FF A0 C6 6A 00 00 01 45
 (1743344803.723762)  can0  1DC   [8]  6E 00 0F FD 01 0C D5 66
 (1743344803.723836)  can0  55B   [8]  EF C0 AA 00 E7 00 12 F7
 (1743344803.723839)  can0  1D4   [8]  F7 07 00 00 47 46 00 BC
 (1743344803.723840)  can0  1F2   [8]  10 64 00 00 00 1E 01 0D
 (1743344803.723841)  can0  1DA   [8]  C8 64 18 00 00 01 03 1A
 (1743344803.724271)  can0  284   [8]  00 00 00 00 00 00 A4 2A
 (1743344803.730641)  can0  11A   [8]  01 40 00 AA 80 00 03 CE
 (1743344803.732397)  can0  1DB   [8]  FF A0 C6 6A 00 00 02 4F
 (1743344803.732458)  can0  1DC   [8]  6E 00 0F FD 05 08 C6 BA
 (1743344803.733321)  can0  1D4   [8]  F7 07 00 00 87 46 00 70
 (1743344803.734327)  can0  1DA   [8]  C8 64 18 00 00 01 00 10
 (1743344803.734421)  can0  1F2   [8]  10 64 00 00 00 1E 02 0E
 (1743344803.739675)  can0  11A   [8]  01 40 00 AA C0 00 00 03
 (1743344803.742502)  can0  1DB   [8]  FF A0 C6 6A 00 00 03 CA
 (1743344803.742608)  can0  1DC   [8]  6E 00 0F FD 08 C0 C3 F1
 (1743344803.744232)  can0  1DA   [8]  C8 64 18 00 00 01 01 95
 (1743344803.744408)  can0  1D4   [8]  F7 07 00 00 C7 46 00 B7
 (1743344803.744411)  can0  1F2   [8]  10 64 00 00 00 1E 03 0F
 (1743344803.744930)  can0  284   [8]  00 00 00 00 00 00 A5 2B
 (1743344803.750687)  can0  11A   [8]  01 40 00 55 00 00 01 15
 (1743344803.752053)  can0  54A   [8]  A0 00 70 02 00 00 00 36
 (1743344803.752474)  can0  1DB   [8]  FF A0 C6 6A 00 00 00 C0
 (1743344803.752593)  can0  1DC   [8]  6E 00 0F FD 0C CC D8 BD
 (1743344803.752613)  can0  54B   [8]  01 08 80 12 04 00 00 00
 (1743344803.753270)  can0  1DA   [8]  C8 64 18 00 00 01 02 9F
 (1743344803.753933)  can0  54C   [8]  93 66 00 00 00 00 6C 00
 (1743344803.753965)  can0  1D4   [8]  F7 07 00 00 07 46 00 7B
 (1743344803.754490)  can0  1F2   [8]  10 64 00 00 00 1E 00 0C
 (1743344803.754535)  can0  54F   [8]  35 01 00 00 07 40 88 34
 (1743344803.760546)  can0  11A   [8]  01 40 00 55 40 00 02 D8
 (1743344803.762012)  can0  1DB   [8]  FF C0 C6 6A 00 00 01 B6
 (1743344803.762517)  can0  1DC   [8]  6E 00 0F FD 01 0C D5 66
 (1743344803.763408)  can0  1DA   [8]  C8 64 18 00 00 01 03 1A
 (1743344803.764680)  can0  1D4   [8]  F7 07 00 00 47 46 00 BC
 (1743344803.764855)  can0  1F2   [8]  10 64 00 00 00 1E 01 0D
 (1743344803.764892)  can0  284   [8]  00 00 00 00 00 00 A6 2C
 (1743344803.770542)  can0  11A   [8]  01 40 00 AA 80 00 03 CE
 (1743344803.770601)  can0  56E   [1]  46
 (1743344803.772000)  can0  1DB   [8]  FF C0 C6 6A 00 00 02 BC
 (1743344803.772493)  can0  1DC   [8]  6E 00 0F FD 05 08 C6 BA
 (1743344803.773898)  can0  1DA   [8]  C8 64 18 00 00 01 00 10
 (1743344803.773973)  can0  55A   [8]  00 38 35 00 5F 38 5B 08
 (1743344803.775536)  can0  1D4   [8]  F7 07 00 00 87 46 00 70
 (1743344803.775597)  can0  1F2   [8]  10 64 00 00 00 1E 02 0E
 (1743344803.775599)  can0  284   [8]  00 00 00 00 00 00 A7 2D
 (1743344803.775601)  can0  50C   [6]  00 00 00 01 5D 5F
 (1743344803.779582)  can0  380   [8]  02 04 10 21 00 00 00 8D
 (1743344803.779650)  can0  5BF   [8]  00 00 00 00 28 00 00 1A
 (1743344803.780061)  can0  11A   [8]  01 40 00 AA C0 00 00 03
 (1743344803.782360)  can0  1DB   [8]  FF C0 C6 6A 00 00 03 39
 (1743344803.782423)  can0  1DC   [8]  6E 00 0F FD 08 C0 C3 F1
 (1743344803.783451)  can0  1DA   [8]  C8 64 18 00 00 01 01 95
 (1743344803.784529)  can0  1D4   [8]  F7 07 00 00 C7 46 00 B7
 (1743344803.785045)  can0  1F2   [8]  10 64 00 00 00 1E 03 0F
 (1743344803.790449)  can0  11A   [8]  01 40 00 55 00 00 01 15
 (1743344803.792019)  can0  1DB   [8]  FF C0 C6 6A 00 00 00 33
 (1743344803.792481)  can0  1DC   [8]  6E 00 0F FD 0C CC D8 BD
 (1743344803.793484)  can0  1DA   [8]  C8 64 18 00 00 01 02 9F
 (1743344803.796091)  can0  1D4   [8]  F7 07 00 00 07 46 00 7B
 (1743344803.796163)  can0  1F2   [8]  10 64 00 00 00 1E 00 0C
 (1743344803.796167)  can0  284   [8]  00 00 00 00 00 00 A8 2E
 (1743344803.796169)  can0  50A   [6]  85 32 A0 15 80 A0
 (1743344803.800275)  can0  11A   [8]  01 40 00 55 40 00 02 D8
 (1743344803.801979)  can0  1DB   [8]  FF C0 C6 6A 00 00 01 B6
 (1743344803.802536)  can0  1DC   [8]  6E 00 0F FD 01 0C D5 66
 (1743344803.803473)  can0  1DA   [8]  C8 64 18 00 00 01 03 1A
 (1743344803.805013)  can0  1D4   [8]  F7 07 00 00 47 46 00 BC
 (1743344803.805628)  can0  1F2   [8]  10 64 00 00 00 1E 01 0D
 (1743344803.810521)  can0  11A   [8]  01 40 00 AA 80 00 03 CE
 (1743344803.812455)  can0  1DB   [8]  FF C0 C6 6A 00 00 02 BC
 (1743344803.812522)  can0  1DC   [8]  6E 00 0F FD 05 08 C6 BA
 (1743344803.813420)  can0  1DA   [8]  C8 64 18 00 00 01 00 10
 (1743344803.815328)  can0  1D4   [8]  F7 07 00 00 87 46 00 70
 (1743344803.816258)  can0  1F2   [8]  10 64 00 00 00 1E 02 0E
 (1743344803.816350)  can0  284   [8]  00 00 00 00 00 00 A9 2F
 (1743344803.816354)  can0  50B   [6]  00 00 06 C0 00 60
 (1743344803.819610)  can0  11A   [8]  01 40 00 AA C0 00 00 03
 (1743344803.822196)  can0  1DB   [8]  FF C0 C6 6A 00 00 03 39
 (1743344803.822842)  can0  1DC   [8]  6E 00 0F FD 08 C0 C3 F1
 (1743344803.822848)  can0  55B   [8]  EF C0 AA 00 E7 00 13 72
 (1743344803.823573)  can0  1DA   [8]  C8 64 18 00 00 01 01 95
 (1743344803.825855)  can0  1D4   [8]  F7 07 00 00 C7 46 00 B7
 (1743344803.825923)  can0  1F2   [8]  10 64 00 00 00 1E 03 0F
 (1743344803.830345)  can0  11A   [8]  01 40 00 55 00 00 01 15
 (1743344803.832086)  can0  1DB   [8]  FF C0 C6 AA 00 00 00 14
 (1743344803.832651)  can0  1DC   [8]  6E 00 0F FD 0C CC D8 BD
 (1743344803.833426)  can0  1DA   [8]  C8 64 18 00 00 01 02 9F
 (1743344803.835810)  can0  1D4   [8]  F7 07 00 00 07 46 00 7B
 (1743344803.836560)  can0  1F2   [8]  10 64 00 00 00 1E 00 0C
 (1743344803.836646)  can0  284   [8]  00 00 00 00 00 00 AA 30
 (1743344803.840000)  can0  11A   [8]  01 40 00 55 40 00 02 D8
 (1743344803.842402)  can0  1DB   [8]  FF C0 C6 AA 00 00 01 91
 (1743344803.842473)  can0  1DC   [8]  6E 00 0F FD 01 0C D5 66
 (1743344803.843455)  can0  1DA   [8]  C8 64 18 00 00 01 03 1A
 (1743344803.846349)  can0  1D4   [8]  F7 07 00 00 47 46 00 BC
 (1743344803.846414)  can0  1F2   [8]  10 64 00 00 00 1E 01 0D
 (1743344803.850365)  can0  11A   [8]  01 40 00 AA 80 00 03 CE
 (1743344803.851995)  can0  54A   [8]  12 00 70 02 00 00 00 36
 (1743344803.852940)  can0  1DB   [8]  FF C0 C6 AA 00 00 02 9B
 (1743344803.853040)  can0  1DC   [8]  6E 00 0F FD 05 08 C6 BA
 (1743344803.853043)  can0  54B   [8]  01 08 80 12 04 00 00 00
 (1743344803.853820)  can0  1DA   [8]  C8 64 18 00 00 01 00 10
 (1743344803.853867)  can0  54C   [8]  93 66 00 00 00 00 6C 00
 (1743344803.854600)  can0  54F   [8]  35 01 00 00 07 80 88 34
 (1743344803.856905)  can0  1D4   [8]  F7 07 00 00 87 46 00 70
 (1743344803.856999)  can0  1F2   [8]  10 64 00 00 00 1E 02 0E
 (1743344803.857002)  can0  284   [8]  00 00 00 00 00 00 AB 31
 (1743344803.859653)  can0  11A   [8]  01 40 00 AA C0 00 00 03
 (1743344803.862005)  can0  1DB   [8]  FF C0 C6 AA 00 00 03 1E
 (1743344803.862547)  can0  1DC   [8]  6E 00 0F FD 08 C0 C3 F1
 (1743344803.863411)  can0  1DA   [8]  C8 64 18 00 00 01 01 95
 (1743344803.867068)  can0  79B   [8]  02 21 01 00 00 00 00 00
 (1743344803.867162)  can0  1D4   [8]  F7 07 00 00 C7 46 00 B7
 (1743344803.867165)  can0  1F2   [8]  10 64 00 00 00 1E 03 0F
 (1743344803.870390)  can0  11A   [8]  01 40 00 55 00 00 01 15
 (1743344803.872015)  can0  1DB   [8]  FF C0 C6 6A 00 00 00 33
 (1743344803.872641)  can0  1DC   [8]  6E 00 0F FD 0C CC D8 BD
 (1743344803.872677)  can0  56E   [1]  46
 (1743344803.873384)  can0  1DA   [8]  C8 64 18 00 00 01 02 9F
 (1743344803.873880)  can0  55A   [8]  00 38 35 00 5F 38 5B 08
 (1743344803.875052)  can0  7BB   [8]  10 29 61 01 FF FF F4 3D
 (1743344803.875896)  can0  79B   [8]  30 00 00 00 00 00 00 00
 (1743344803.876890)  can0  1D4   [8]  F7 07 00 00 07 46 00 7B
 (1743344803.878003)  can0  1F2   [8]  10 64 00 00 00 1E 00 0C
 (1743344803.878033)  can0  284   [8]  00 00 00 00 00 00 AC 32
 (1743344803.878035)  can0  50C   [6]  00 00 00 02 5D 63
 (1743344803.879301)  can0  380   [8]  02 04 10 21 00 00 00 9E
 (1743344803.880159)  can0  5BF   [8]  00 00 00 00 28 00 00 2B
 (1743344803.880250)  can0  11A   [8]  01 40 00 55 40 00 02 D8
 (1743344803.882845)  can0  1DB   [8]  FF C0 C6 6A 00 00 01 B6
 (1743344803.882899)  can0  1DC   [8]  6E 00 0F FD 01 0C D5 66
 (1743344803.883663)  can0  1DA   [8]  C8 64 18 00 00 01 03 1A
 (1743344803.884790)  can0  7BB   [8]  21 02 88 FF FF FB 58 FF
 (1743344803.887306)  can0  1D4   [8]  F7 07 00 00 47 46 00 BC
 (1743344803.887354)  can0  1F2   [8]  10 64 00 00 00 1E 01 0D
 (1743344803.890251)  can0  11A   [8]  01 40 00 AA 80 00 03 CE
 (1743344803.891903)  can0  1DB   [8]  FF C0 C6 6A 00 00 02 BC
 (1743344803.892421)  can0  1DC   [8]  6E 00 0F FD 05 08 C6 BA
 (1743344803.893478)  can0  1DA   [8]  C8 64 18 00 00 01 00 10
 (1743344803.894995)  can0  7BB   [8]  22 FF FF FF 00 00 2A F8
 (1743344803.897804)  can0  1D4   [8]  F7 07 00 00 87 46 00 70
 (1743344803.898045)  can0  1F2   [8]  10 64 00 00 00 1E 02 0E
 (1743344803.898049)  can0  284   [8]  00 00 00 00 00 00 AD 33
 (1743344803.898304)  can0  50A   [6]  85 52 A0 15 80 A0
 (1743344803.899576)  can0  11A   [8]  01 40 00 AA C0 00 00 03
 (1743344803.902353)  can0  1DB   [8]  FF E0 C6 6A 00 00 03 68
 (1743344803.902414)  can0  1DC   [8]  6E 00 0F FD 08 C0 C3 F1
 (1743344803.903421)  can0  1DA   [8]  C8 64 18 00 00 01 01 95
 (1743344803.904774)  can0  7BB   [8]  23 9B 3A 32 D9 03 9C 00
 (1743344803.907798)  can0  1D4   [8]  F7 07 00 00 C7 46 00 B7
 (1743344803.907958)  can0  1F2   [8]  10 64 00 00 00 1E 03 0F
 (1743344803.910645)  can0  11A   [8]  01 40 00 55 00 00 01 15
 (1743344803.912456)  can0  1DB   [8]  FF E0 C6 6A 00 00 00 62
 (1743344803.912520)  can0  1DC   [8]  6E 00 0F FD 0C CC D8 BD
 (1743344803.913462)  can0  1DA   [8]  C8 64 18 00 00 01 02 9F
 (1743344803.915046)  can0  7BB   [8]  24 5C 29 F0 00 0E A5 70
 (1743344803.918714)  can0  1D4   [8]  F7 07 00 00 07 46 00 7B
 (1743344803.918808)  can0  1F2   [8]  10 64 00 00 00 1E 00 0C
 (1743344803.918811)  can0  284   [8]  00 00 00 00 00 00 AE 34
 (1743344803.918813)  can0  50B   [6]  00 00 06 C0 00 60
 (1743344803.920229)  can0  11A   [8]  01 40 00 55 40 00 02 D8
 (1743344803.922689)  can0  1DB   [8]  FF E0 C6 6A 00 00 01 E7
 (1743344803.922788)  can0  1DC   [8]  6E 00 0F FD 01 0C D5 66
 (1743344803.923246)  can0  55B   [8]  EF C0 AA 00 E7 00 10 78
 (1743344803.923756)  can0  1DA   [8]  C8 64 18 00 00 01 03 1A
 (1743344803.928447)  can0  7BB   [8]  25 00 0A 3B 63 80 00 05
 (1743344803.928543)  can0  1D4   [8]  F7 07 00 00 47 46 00 BC
 (1743344803.928546)  can0  1F2   [8]  10 64 00 00 00 1E 01 0D
 (1743344803.930308)  can0  11A   [8]  01 40 00 AA 80 00 03 CE
 (1743344803.932055)  can0  1DB   [8]  FF E0 C6 6A 00 00 02 ED
 (1743344803.932561)  can0  1DC   [8]  6E 00 0F FD 05 08 C6 BA
 (1743344803.933474)  can0  1DA   [8]  C8 64 18 00 00 01 00 10
 (1743344803.938900)  can0  1D4   [8]  F7 07 00 00 87 46 00 70
 (1743344803.938962)  can0  1F2   [8]  10 64 00 00 00 1E 02 0E
 (1743344803.939151)  can0  284   [8]  00 00 00 00 00 00 AF 35
 (1743344803.939594)  can0  11A   [8]  01 40 00 AA C0 00 00 03
 (1743344803.942831)  can0  1DB   [8]  FF E0 C6 6A 00 00 03 68
 (1743344803.942891)  can0  1DC   [8]  6E 00 0F FD 08 C0 C3 F1
 (1743344803.943506)  can0  1DA   [8]  C8 64 18 00 00 01 01 95
 (1743344803.949115)  can0  1D4   [8]  F7 07 00 00 C7 46 00 B7
 (1743344803.949241)  can0  1F2   [8]  10 64 00 00 00 1E 03 0F
 (1743344803.950313)  can0  11A   [8]  01 40 00 55 00 00 01 15
 (1743344803.951703)  can0  54A   [8]  A0 00 70 02 00 00 00 36
 (1743344803.952505)  can0  1DB   [8]  FF E0 C6 6A 00 00 00 62
 (1743344803.952563)  can0  1DC   [8]  6E 00 0F FD 0C CC D8 BD
 (1743344803.953070)  can0  54B   [8]  01 08 80 12 04 00 00 00
 (1743344803.953860)  can0  1DA   [8]  C8 64 18 00 00 01 02 9F
 (1743344803.953919)  can0  54C   [8]  93 66 00 00 00 00 6C 00
 (1743344803.954671)  can0  54F   [8]  35 01 00 00 07 C0 88 34
 (1743344803.959477)  can0  1D4   [8]  F7 07 00 00 07 46 00 7B
 (1743344803.959564)  can0  1F2   [8]  10 64 00 00 00 1E 00 0C
 (1743344803.959567)  can0  284   [8]  00 00 00 00 00 00 B0 36
 (1743344803.960249)  can0  11A   [8]  01 40 00 55 40 00 02 D8
 (1743344803.961987)  can0  1DB   [8]  FF C0 C6 6A 00 00 01 B6
 (1743344803.962857)  can0  1DC   [8]  6E 00 0F FD 01 0C D5 66
 (1743344803.963885)  can0  1DA   [8]  C8 64 18 00 00 01 03 1A
 (1743344803.969301)  can0  1D4   [8]  F7 07 00 00 47 46 00 BC
 (1743344803.969361)  can0  1F2   [8]  10 64 00 00 00 1E 01 0D
 (1743344803.970289)  can0  11A   [8]  01 40 00 AA 80 00 03 CE
 (1743344803.972009)  can0  1DB   [8]  FF C0 C6 6A 00 00 02 BC
 (1743344803.972674)  can0  1DC   [8]  6E 00 0F FD 05 08 C6 BA
 (1743344803.973390)  can0  1DA   [8]  C8 64 18 00 00 01 00 10
 (1743344803.973856)  can0  55A   [8]  00 38 35 00 5F 38 5B 08
 (1743344803.974479)  can0  56E   [1]  46
 (1743344803.980815)  can0  1D4   [8]  F7 07 00 00 87 46 00 70
 (1743344803.980923)  can0  1F2   [8]  10 64 00 00 00 1E 02 0E
 (1743344803.980926)  can0  11A   [8]  01 40 00 AA C0 00 00 03
 (1743344803.980928)  can0  284   [8]  00 00 00 00 00 00 B1 37
 (1743344803.981106)  can0  380   [8]  02 04 10 21 00 00 00 AF
 (1743344803.981112)  can0  50C   [6]  00 00 00 03 5D F4
 (1743344803.981117)  can0  5BF   [8]  00 00 00 00 28 00 00 3C
 (1743344803.982418)  can0  1DB   [8]  FF E0 C6 6A 00 00 03 68
 (1743344803.982480)  can0  1DC   [8]  6E 00 0F FD 08 C0 C3 F1
 (1743344803.983406)  can0  1DA   [8]  C8 64 18 00 00 01 01 95
 (1743344803.989700)  can0  1D4   [8]  F7 07 00 00 C7 46 00 B7
 (1743344803.990778)  can0  1F2   [8]  10 64 00 00 00 1E 03 0F
 (1743344803.990871)  can0  5A9   [8]  8B 2D 50 10 03 B0 00 00
 (1743344803.990874)  can0  11A   [8]  01 40 00 55 00 00 01 15
 (1743344803.992567)  can0  1DB   [8]  FF E0 C6 6A 00 00 00 62
 (1743344803.992620)  can0  1DC   [8]  6E 00 0F FD 0C CC D8 BD
 (1743344803.993479)  can0  1DA   [8]  C8 64 18 00 00 01 02 9F
 (1743344804.000067)  can0  1D4   [8]  F7 07 00 00 07 46 00 7B
 (1743344804.000778)  can0  1F2   [8]  10 64 00 00 00 1E 00 0C
 (1743344804.000898)  can0  284   [8]  00 00 00 00 00 00 B2 38
 (1743344804.000902)  can0  11A   [8]  01 40 00 55 40 00 02 D8
 (1743344804.001371)  can0  50A   [6]  85 72 A0 15 80 A0
 (1743344804.001992)  can0  1DB   [8]  FF C0 C6 6A 00 00 01 B6
 (1743344804.002515)  can0  1DC   [8]  6E 00 0F FD 01 0C D5 66
 (1743344804.003442)  can0  1DA   [8]  C8 64 18 00 00 01 03 1A
 (1743344804.005897)  can0  79B   [8]  02 21 02 00 00 00 00 00
 (1743344804.011031)  can0  1D4   [8]  F7 07 00 00 47 46 00 BC
 (1743344804.011103)  can0  1F2   [8]  10 64 00 00 00 1E 01 0D
 (1743344804.011105)  can0  11A   [8]  01 40 00 AA 80 00 03 CE
 (1743344804.012563)  can0  1DB   [8]  FF C0 C6 6A 00 00 02 BC
 (1743344804.012622)  can0  1DC   [8]  6E 00 0F FD 05 08 C6 BA
 (1743344804.013476)  can0  1DA   [8]  C8 64 18 00 00 01 00 10
 (1743344804.016367)  can0  7BB   [8]  10 C6 61 02 10 34 10 36
 (1743344804.017110)  can0  79B   [8]  30 00 00 00 00 00 00 00
 (1743344804.019647)  can0  11A   [8]  01 40 00 AA C0 00 00 03
 (1743344804.020170)  can0  1D4   [8]  F7 07 00 00 87 46 00 70
 (1743344804.021105)  can0  1F2   [8]  10 64 00 00 00 1E 02 0E
 (1743344804.021247)  can0  284   [8]  00 00 00 00 00 00 B3 39
 (1743344804.021253)  can0  50B   [6]  00 00 06 C0 00 60
 (1743344804.022282)  can0  1DB   [8]  FF C0 C6 6A 00 00 03 39
 (1743344804.023361)  can0  1DC   [8]  6E 00 0F FD 08 C0 C3 F1
 (1743344804.023402)  can0  55B   [8]  EF C0 AA 00 E7 00 11 FD
 (1743344804.023848)  can0  1DA   [8]  C8 64 18 00 00 01 01 95
 (1743344804.027642)  can0  7BB   [8]  21 10 37 10 36 10 29 10
 (1743344804.030286)  can0  11A   [8]  01 40 00 55 00 00 01 15
 (1743344804.031026)  can0  1D4   [8]  F7 07 00 00 C7 46 00 B7
 (1743344804.031085)  can0  1F2   [8]  10 64 00 00 00 1E 03 0F
 (1743344804.032428)  can0  1DB   [8]  FF C0 C6 6A 00 00 00 33
 (1743344804.033696)  can0  1DC   [8]  6E 00 0F FD 0C CC D8 BD
 (1743344804.033765)  can0  5BC   [8]  46 C3 2C 32 C9 04 1F FF
 (1743344804.033768)  can0  5C0   [8]  4A 66 66 00 C8 0C 00 00
 (1743344804.033770)  can0  1DA   [8]  C8 64 18 00 00 01 02 9F
 (1743344804.036082)  can0  7BB   [8]  22 24 10 26 10 1F 10 2B
 (1743344804.040108)  can0  11A   [8]  01 40 00 55 40 00 02 D8
 (1743344804.041441)  can0  1D4   [8]  F7 07 00 00 07 46 00 7B
 (1743344804.041645)  can0  1F2   [8]  10 64 00 00 00 1E 00 0C
 (1743344804.041650)  can0  284   [8]  00 00 00 00 00 00 B4 3A
 (1743344804.042262)  can0  1DB   [8]  FF C0 C6 6A 00 00 01 B6
 (1743344804.042366)  can0  1DC   [8]  6E 00 0F FD 01 0C D5 66
 (1743344804.043598)  can0  1DA   [8]  C8 64 18 00 00 01 03 1A
 (1743344804.044649)  can0  7BB   [8]  23 10 30 10 30 10 2D 10
 (1743344804.050481)  can0  11A   [8]  01 40 00 AA 80 00 03 CE
 (1743344804.051377)  can0  1D4   [8]  F7 07 00 00 47 46 00 BC
 (1743344804.051473)  can0  1F2   [8]  10 64 00 00 00 1E 01 0D
 (1743344804.052110)  can0  54A   [8]  12 00 70 02 00 00 00 36
 (1743344804.052192)  can0  1DB   [8]  FF C0 C6 6A 00 00 02 BC
 (1743344804.052911)  can0  1DC   [8]  6E 00 0F FD 05 08 C6 BA
 (1743344804.053026)  can0  54B   [8]  01 08 80 12 04 00 00 00
 (1743344804.053587)  can0  1DA   [8]  C8 64 18 00 00 01 00 10
 (1743344804.054084)  can0  54C   [8]  93 66 00 00 00 00 6C 00
 (1743344804.054725)  can0  54F   [8]  35 01 00 00 07 00 88 34
 (1743344804.055787)  can0  7BB   [8]  24 30 10 2D 10 31 10 2D
 (1743344804.060029)  can0  11A   [8]  01 40 00 AA C0 00 00 03
 (1743344804.061170)  can0  1D4   [8]  F7 07 00 00 87 46 00 70
 (1743344804.062627)  can0  1F2   [8]  10 64 00 00 00 1E 02 0E
 (1743344804.062697)  can0  284   [8]  00 00 00 00 00 00 B5 3B
 (1743344804.062704)  can0  5B9   [5]  60 0A 60 0A 28
 (1743344804.062706)  can0  1DB   [8]  FF C0 C6 6A 00 00 03 39
 (1743344804.062708)  can0  1DC   [8]  6E 00 0F FD 08 C0 C3 F1
 (1743344804.063387)  can0  1DA   [8]  C8 64 18 00 00 01 01 95
 (1743344804.064648)  can0  7BB   [8]  25 10 28 10 26 10 26 10
 (1743344804.070368)  can0  11A   [8]  01 40 00 55 00 00 01 15
 (1743344804.071363)  can0  1D4   [8]  F7 07 00 00 C7 46 00 B7
 (1743344804.072462)  can0  1F2   [8]  10 64 00 00 00 1E 03 0F
 (1743344804.072565)  can0  1DB   [8]  FF C0 C6 6A 00 00 00 33
 (1743344804.072568)  can0  1DC   [8]  6E 00 0F FD 0C CC D8 BD
 (1743344804.073395)  can0  1DA   [8]  C8 64 18 00 00 01 02 9F
 (1743344804.073931)  can0  55A   [8]  00 38 35 00 5F 38 5B 08
 (1743344804.075860)  can0  7BB   [8]  26 24 10 29 10 29 10 28
 (1743344804.076347)  can0  56E   [1]  46
 (1743344804.080149)  can0  380   [8]  02 04 10 21 00 00 00 B0
 (1743344804.080273)  can0  5BF   [8]  00 00 00 00 28 00 00 09
 (1743344804.080278)  can0  11A   [8]  01 40 00 55 40 00 02 D8
 (1743344804.084067)  can0  1D4   [8]  F7 07 00 00 07 46 00 7B
 (1743344804.084174)  can0  1F2   [8]  10 64 00 00 00 1E 00 0C
 (1743344804.084177)  can0  1DB   [8]  FF C0 C6 6A 00 00 01 B6
 (1743344804.084178)  can0  1DC   [8]  6E 00 0F FD 01 0C D5 66
 (1743344804.084180)  can0  284   [8]  00 00 00 00 00 00 B6 3C
 (1743344804.084182)  can0  50C   [6]  00 00 00 00 5D C8
 (1743344804.084185)  can0  1DA   [8]  C8 64 18 00 00 01 03 1A
 (1743344804.085152)  can0  7BB   [8]  27 10 28 10 2B 10 2D 10
 (1743344804.090459)  can0  11A   [8]  01 40 00 AA 80 00 03 CE
 (1743344804.092733)  can0  1D4   [8]  F7 07 00 00 47 46 00 BC
 (1743344804.092809)  can0  1DB   [8]  FF C0 C6 6A 00 00 02 BC
 (1743344804.092812)  can0  1DC   [8]  6E 00 0F FD 05 08 C6 BA
 (1743344804.092896)  can0  1F2   [8]  10 64 00 00 00 1E 01 0D
 (1743344804.093411)  can0  1DA   [8]  C8 64 18 00 00 01 00 10
 (1743344804.095791)  can0  7BB   [8]  28 2D 10 29 10 30 10 31
 (1743344804.099606)  can0  11A   [8]  01 40 00 AA C0 00 00 03
 (1743344804.102885)  can0  1DB   [8]  FF C0 C6 6A 00 00 03 39
 (1743344804.104011)  can0  1D4   [8]  F7 07 00 00 87 46 00 70
 (1743344804.104120)  can0  1DC   [8]  6E 00 0F FD 08 C0 C3 F1
 (1743344804.104123)  can0  1F2   [8]  10 64 00 00 00 1E 02 0E
 (1743344804.104125)  can0  284   [8]  00 00 00 00 00 00 B7 3D
 (1743344804.104127)  can0  50A   [6]  85 12 A0 15 80 A0
 (1743344804.104129)  can0  1DA   [8]  C8 64 18 00 00 01 01 95
 (1743344804.104587)  can0  7BB   [8]  29 10 30 10 2D 10 28 10
 (1743344804.110455)  can0  11A   [8]  01 40 00 55 00 00 01 15
 (1743344804.112412)  can0  1DB   [8]  FF C0 C6 6A 00 00 00 33
 (1743344804.112920)  can0  1DC   [8]  6E 00 0F FD 0C CC D8 BD
 (1743344804.113222)  can0  1D4   [8]  F7 07 00 00 C7 46 00 B7
 (1743344804.113363)  can0  1F2   [8]  10 64 00 00 00 1E 03 0F
 (1743344804.113859)  can0  1DA   [8]  C8 64 18 00 00 01 02 9F
 (1743344804.115863)  can0  7BB   [8]  2A 2B 10 28 10 24 10 2D
 (1743344804.120317)  can0  11A   [8]  01 40 00 55 40 00 02 D8
 (1743344804.122157)  can0  1DB   [8]  FF C0 C6 6A 00 00 01 B6
 (1743344804.124277)  can0  1DC   [8]  6E 00 0F FD 01 0C D5 66
 (1743344804.124328)  can0  1D4   [8]  F7 07 00 00 07 46 00 7B
 (1743344804.124331)  can0  1F2   [8]  10 64 00 00 00 1E 00 0C
 (1743344804.124332)  can0  284   [8]  00 00 00 00 00 00 B8 3E
 (1743344804.124334)  can0  50B   [6]  00 00 06 C0 00 60
 (1743344804.124336)  can0  1DA   [8]  C8 64 18 00 00 01 03 1A
 (1743344804.124338)  can0  55B   [8]  EF C0 AA 00 E7 00 12 F7
 (1743344804.127950)  can0  7BB   [8]  2B 10 2E 10 2D 10 29 10
 (1743344804.130249)  can0  11A   [8]  01 40 00 AA 80 00 03 CE
 (1743344804.132653)  can0  1DB   [8]  FF C0 C6 6A 00 00 02 BC
 (1743344804.132980)  can0  1DC   [8]  6E 00 0F FD 05 08 C6 BA
 (1743344804.133036)  can0  1D4   [8]  F7 07 00 00 47 46 00 BC
 (1743344804.133066)  can0  1F2   [8]  10 64 00 00 00 1E 01 0D
 (1743344804.133383)  can0  1DA   [8]  C8 64 18 00 00 01 00 10
 (1743344804.135541)  can0  7BB   [8]  2C 1F 10 1F 10 1D 10 1A
 (1743344804.139253)  can0  11A   [8]  01 40 00 AA C0 00 00 03
 (1743344804.142369)  can0  1DB   [8]  FF C0 C6 6A 00 00 03 39
 (1743344804.142433)  can0  1DC   [8]  6E 00 0F FD 08 C0 C3 F1
 (1743344804.143884)  can0  1D4   [8]  F7 07 00 00 87 46 00 70
 (1743344804.144975)  can0  1F2   [8]  10 64 00 00 00 1E 02 0E
 (1743344804.145085)  can0  1DA   [8]  C8 64 18 00 00 01 01 95
 (1743344804.145089)  can0  284   [8]  00 00 00 00 00 00 B9 3F
 (1743344804.145273)  can0  7BB   [8]  2D 10 34 10 34 10 34 10
 (1743344804.150618)  can0  11A   [8]  01 40 00 55 00 00 01 15
 (1743344804.151855)  can0  54A   [8]  A0 00 70 02 00 00 00 36
 (1743344804.152660)  can0  1DB   [8]  FF C0 C6 6A 00 00 00 33
 (1743344804.152721)  can0  1DC   [8]  6E 00 0F FD 0C CC D8 BD
 (1743344804.154160)  can0  54B   [8]  01 08 80 12 04 00 00 00
 (1743344804.154263)  can0  1D4   [8]  F7 07 00 00 C7 46 00 B7
 (1743344804.154266)  can0  1DA   [8]  C8 64 18 00 00 01 02 9F
 (1743344804.154479)  can0  1F2   [8]  10 64 00 00 00 1E 03 0F
 (1743344804.154553)  can0  54C   [8]  93 66 00 00 00 00 6C 00
 (1743344804.154994)  can0  54F   [8]  35 01 00 00 07 40 88 34
 (1743344804.155598)  can0  7BB   [8]  2E 35 10 30 10 31 10 31
 (1743344804.160204)  can0  11A   [8]  01 40 00 55 40 00 02 D8
 (1743344804.162628)  can0  1DB   [8]  FF C0 C6 6A 00 00 01 B6
 (1743344804.162737)  can0  1DC   [8]  6E 00 0F FD 01 0C D5 66
 (1743344804.163502)  can0  1DA   [8]  C8 64 18 00 00 01 03 1A
 (1743344804.164287)  can0  1D4   [8]  F7 07 00 00 07 46 00 7B
 (1743344804.164431)  can0  1F2   [8]  10 64 00 00 00 1E 00 0C
 (1743344804.164444)  can0  284   [8]  00 00 00 00 00 00 BA 40
 (1743344804.164513)  can0  7BB   [8]  2F 10 2D 10 29 10 28 10
 (1743344804.170375)  can0  11A   [8]  01 40 00 AA 80 00 03 CE
 (1743344804.171983)  can0  1DB   [8]  FF C0 C6 6A 00 00 02 BC
 (1743344804.172537)  can0  1DC   [8]  6E 00 0F FD 05 08 C6 BA
 (1743344804.173423)  can0  1DA   [8]  C8 64 18 00 00 01 00 10
 (1743344804.174179)  can0  55A   [8]  00 38 35 00 5F 38 5B 08
 (1743344804.174443)  can0  1D4   [8]  F7 07 00 00 47 46 00 BC
 (1743344804.174654)  can0  1F2   [8]  10 64 00 00 00 1E 01 0D
 (1743344804.175875)  can0  7BB   [8]  20 29 10 28 10 2D 10 2B
 (1743344804.178742)  can0  56E   [1]  46
 (1743344804.180171)  can0  11A   [8]  01 40 00 AA C0 00 00 03
 (1743344804.180344)  can0  380   [8]  02 04 10 21 00 00 00 8D
 (1743344804.180350)  can0  5BF   [8]  00 00 00 00 28 00 00 1A
 (1743344804.182556)  can0  1DB   [8]  FF C0 C6 6A 00 00 03 39
 (1743344804.182625)  can0  1DC   [8]  6E 00 0F FD 08 C0 C3 F1
 (1743344804.183389)  can0  1DA   [8]  C8 64 18 00 00 01 01 95
 (1743344804.184110)  can0  1D4   [8]  F7 07 00 00 87 46 00 70
 (1743344804.185371)  can0  1F2   [8]  10 64 00 00 00 1E 02 0E
 (1743344804.185471)  can0  284   [8]  00 00 00 00 00 00 BB 41
 (1743344804.185475)  can0  50C   [6]  00 00 00 01 5D 5F
 (1743344804.185479)  can0  7BB   [8]  21 10 2B 10 29 10 2B 10
 (1743344804.190318)  can0  11A   [8]  01 40 00 55 00 00 01 15
 (1743344804.192002)  can0  1DB   [8]  FF E0 C6 6A 00 00 00 62
 (1743344804.192653)  can0  1DC   [8]  6E 00 0F FD 0C CC D8 BD
 (1743344804.193379)  can0  1DA   [8]  C8 64 18 00 00 01 02 9F
 (1743344804.194279)  can0  1D4   [8]  F7 07 00 00 C7 46 00 B7
 (1743344804.195022)  can0  1F2   [8]  10 64 00 00 00 1E 03 0F
 (1743344804.195092)  can0  284   [8]  00 00 00 00 00 00 BC 42
 (1743344804.195820)  can0  7BB   [8]  22 29 10 28 10 25 10 29
 (1743344804.200218)  can0  11A   [8]  01 40 00 55 40 00 02 D8
 (1743344804.201963)  can0  1DB   [8]  FF E0 C6 6A 00 00 01 E7
 (1743344804.202430)  can0  1DC   [8]  6E 00 0F FD 01 0C D5 66
 (1743344804.203432)  can0  1DA   [8]  C8 64 18 00 00 01 03 1A
 (1743344804.205479)  can0  1D4   [8]  F7 07 00 00 07 46 00 7B
 (1743344804.205554)  can0  1F2   [8]  10 64 00 00 00 1E 00 0C
 (1743344804.205557)  can0  50A   [6]  85 32 A0 15 80 A0
 (1743344804.205559)  can0  7BB   [8]  23 10 29 10 29 10 29 10
 (1743344804.210583)  can0  11A   [8]  01 40 00 AA 80 00 03 CE
 (1743344804.212555)  can0  1DB   [8]  FF E0 C6 6A 00 00 02 ED
 (1743344804.212625)  can0  1DC   [8]  6E 00 0F FD 05 08 C6 BA
 (1743344804.213449)  can0  1DA   [8]  C8 64 18 00 00 01 00 10
 (1743344804.215099)  can0  1D4   [8]  F7 07 00 00 47 46 00 BC
 (1743344804.215165)  can0  1F2   [8]  10 64 00 00 00 1E 01 0D
 (1743344804.215897)  can0  284   [8]  00 00 00 00 00 00 BD 43
 (1743344804.216010)  can0  7BB   [8]  24 32 10 32 10 32 10 2E
 (1743344804.219610)  can0  11A   [8]  01 40 00 AA C0 00 00 03
 (1743344804.222883)  can0  1DB   [8]  FF E0 C6 6A 00 00 03 68
 (1743344804.222942)  can0  1DC   [8]  6E 00 0F FD 08 C0 C3 F1
 (1743344804.222944)  can0  55B   [8]  EF C0 55 00 E7 00 13 35
 (1743344804.223524)  can0  1DA   [8]  C8 64 18 00 00 01 01 95
 (1743344804.225914)  can0  1D4   [8]  F7 07 00 00 87 46 00 70
 (1743344804.226095)  can0  1F2   [8]  10 64 00 00 00 1E 02 0E
 (1743344804.226101)  can0  50B   [6]  00 00 06 C0 00 60
 (1743344804.227523)  can0  7BB   [8]  25 10 2B 10 2B 10 2B 10
 (1743344804.230337)  can0  11A   [8]  01 40 00 55 00 00 01 15
 (1743344804.232380)  can0  1DB   [8]  FF E0 C6 6A 00 00 00 62
 (1743344804.232440)  can0  1DC   [8]  6E 00 0F FD 0C CC D8 BD
 (1743344804.233384)  can0  1DA   [8]  C8 64 18 00 00 01 02 9F
 (1743344804.235280)  can0  1D4   [8]  F7 07 00 00 C7 46 00 B7
 (1743344804.236193)  can0  1F2   [8]  10 64 00 00 00 1E 03 0F
 (1743344804.236340)  can0  284   [8]  00 00 00 00 00 00 BE 44
 (1743344804.236351)  can0  7BB   [8]  26 28 10 2D 10 2B 10 2B
 (1743344804.239985)  can0  11A   [8]  01 40 00 55 40 00 02 D8
 (1743344804.242312)  can0  1DB   [8]  FF C0 C6 6A 00 00 01 B6
 (1743344804.242375)  can0  1DC   [8]  6E 00 0F FD 01 0C D5 66
 (1743344804.243939)  can0  1DA   [8]  C8 64 18 00 00 01 03 1A
 (1743344804.244688)  can0  7BB   [8]  27 10 29 10 24 10 24 10
 (1743344804.245760)  can0  1D4   [8]  F7 07 00 00 07 46 00 7B
 (1743344804.245945)  can0  1F2   [8]  10 64 00 00 00 1E 00 0C
 (1743344804.250371)  can0  11A   [8]  01 40 00 AA 80 00 03 CE
 (1743344804.251945)  can0  54A   [8]  12 00 70 02 00 00 00 36
 (1743344804.252735)  can0  1DB   [8]  FF C0 C6 6A 00 00 02 BC
 (1743344804.252796)  can0  1DC   [8]  6E 00 0F FD 05 08 C6 BA
 (1743344804.253541)  can0  54B   [8]  01 08 80 12 04 00 00 00
 (1743344804.253596)  can0  1DA   [8]  C8 64 18 00 00 01 00 10
 (1743344804.254079)  can0  54C   [8]  93 66 00 00 00 00 6C 00
 (1743344804.254893)  can0  54F   [8]  35 01 00 00 07 80 88 34
 (1743344804.255812)  can0  7BB   [8]  28 25 10 24 10 2D 10 32
 (1743344804.256753)  can0  1D4   [8]  F7 07 00 00 47 46 00 BC
 (1743344804.256843)  can0  1F2   [8]  10 64 00 00 00 1E 01 0D
 (1743344804.256846)  can0  284   [8]  00 00 00 00 00 00 BF 45
 (1743344804.259737)  can0  11A   [8]  01 40 00 AA C0 00 00 03
 (1743344804.262028)  can0  1DB   [8]  FF C0 C6 6A 00 00 03 39
 (1743344804.262547)  can0  1DC   [8]  6E 00 0F FD 08 C0 C3 F1
 (1743344804.263395)  can0  1DA   [8]  C8 64 18 00 00 01 01 95
 (1743344804.264571)  can0  7BB   [8]  29 10 2E 10 2D 10 34 10
 (1743344804.266241)  can0  1D4   [8]  F7 07 00 00 87 46 00 70
 (1743344804.266411)  can0  1F2   [8]  10 64 00 00 00 1E 02 0E
 (1743344804.270311)  can0  11A   [8]  01 40 00 55 00 00 01 15
 (1743344804.271945)  can0  1DB   [8]  FF C0 C6 6A 00 00 00 33
 (1743344804.272424)  can0  1DC   [8]  6E 00 0F FD 0C CC D8 BD
 (1743344804.273849)  can0  1DA   [8]  C8 64 18 00 00 01 02 9F
 (1743344804.273908)  can0  55A   [8]  00 38 35 00 5F 38 5B 08
 (1743344804.275916)  can0  7BB   [8]  2A 31 10 30 10 31 10 2D
 (1743344804.277074)  can0  1D4   [8]  F7 07 00 00 C7 46 00 B7
 (1743344804.277171)  can0  1F2   [8]  10 64 00 00 00 1E 03 0F
 (1743344804.277173)  can0  284   [8]  00 00 00 00 00 00 C0 46
 (1743344804.280560)  can0  380   [8]  02 04 10 21 00 00 00 9E
 (1743344804.280642)  can0  5BF   [8]  00 00 00 00 28 00 00 2B
 (1743344804.280645)  can0  11A   [8]  01 40 00 55 40 00 02 D8
 (1743344804.280647)  can0  56E   [1]  46
 (1743344804.282662)  can0  1DB   [8]  FF C0 C6 6A 00 00 01 B6
 (1743344804.282756)  can0  1DC   [8]  6E 00 0F FD 01 0C D5 66
 (1743344804.283441)  can0  1DA   [8]  C8 64 18 00 00 01 03 1A
 (1743344804.284673)  can0  7BB   [8]  2B 10 2D 10 2D 10 24 9B
 (1743344804.286556)  can0  1D4   [8]  F7 07 00 00 07 46 00 7B
 (1743344804.287280)  can0  1F2   [8]  10 64 00 00 00 1E 00 0C
 (1743344804.287338)  can0  50C   [6]  00 00 00 02 B2 0D
 (1743344804.290410)  can0  11A   [8]  01 40 00 AA 80 00 03 CE
 (1743344804.292409)  can0  1DB   [8]  FF C0 C6 6A 00 00 02 BC
 (1743344804.292510)  can0  1DC   [8]  6E 00 0F FD 05 08 C6 BA
 (1743344804.293418)  can0  1DA   [8]  C8 64 18 00 00 01 00 10
 (1743344804.295874)  can0  7BB   [8]  2C 02 9B 09 FF FF FF FF
 (1743344804.297076)  can0  1D4   [8]  F7 07 00 00 47 46 00 BC
 (1743344804.298288)  can0  1F2   [8]  10 64 00 00 00 1E 01 0D
 (1743344804.298522)  can0  284   [8]  00 00 00 00 00 00 C1 47
 (1743344804.299916)  can0  11A   [8]  01 40 00 AA C0 00 00 03
 (1743344804.302345)  can0  1DB   [8]  FF C0 C6 6A 00 00 03 39
 (1743344804.302540)  can0  1DC   [8]  6E 00 0F FD 08 C0 C3 F1
 (1743344804.303388)  can0  1DA   [8]  C8 64 18 00 00 01 01 95
 (1743344804.307611)  can0  1D4   [8]  F7 07 00 00 87 46 00 70
 (1743344804.307691)  can0  1F2   [8]  10 64 00 00 00 1E 02 0E
 (1743344804.307721)  can0  50A   [6]  85 52 A0 15 80 A0
 (1743344804.310926)  can0  11A   [8]  01 40 00 55 00 00 01 15
 (1743344804.312401)  can0  1DB   [8]  FF C0 C6 6A 00 00 00 33
 (1743344804.312468)  can0  1DC   [8]  6E 00 0F FD 0C CC D8 BD
 (1743344804.313427)  can0  1DA   [8]  C8 64 18 00 00 01 02 9F
 (1743344804.318044)  can0  1D4   [8]  F7 07 00 00 C7 46 00 B7
 (1743344804.318143)  can0  1F2   [8]  10 64 00 00 00 1E 03 0F
 (1743344804.318146)  can0  284   [8]  00 00 00 00 00 00 C2 48
 (1743344804.320064)  can0  11A   [8]  01 40 00 55 40 00 02 D8
 (1743344804.323214)  can0  1DB   [8]  FF C0 C6 6A 00 00 01 B6
 (1743344804.323271)  can0  1DC   [8]  6E 00 0F FD 01 0C D5 66
 (1743344804.323273)  can0  55B   [8]  EF C0 55 00 E7 00 10 3F
 (1743344804.323907)  can0  1DA   [8]  C8 64 18 00 00 01 03 1A
 (1743344804.328074)  can0  1D4   [8]  F7 07 00 00 07 46 00 7B
 (1743344804.328154)  can0  1F2   [8]  10 64 00 00 00 1E 00 0C
 (1743344804.328183)  can0  50B   [6]  00 00 06 C0 00 60
 (1743344804.330267)  can0  11A   [8]  01 40 00 AA 80 00 03 CE
 (1743344804.332329)  can0  1DB   [8]  FF C0 C6 6A 00 00 02 BC
 (1743344804.332509)  can0  1DC   [8]  6E 00 0F FD 05 08 C6 BA
 (1743344804.333384)  can0  1DA   [8]  C8 64 18 00 00 01 00 10
 (1743344804.338026)  can0  1D4   [8]  F7 07 00 00 47 46 00 BC
 (1743344804.338334)  can0  1F2   [8]  10 64 00 00 00 1E 01 0D
 (1743344804.338458)  can0  284   [8]  00 00 00 00 00 00 C3 49
 (1743344804.339561)  can0  11A   [8]  01 40 00 AA C0 00 00 03
 (1743344804.344181)  can0  1DB   [8]  FF E0 C6 6A 00 00 03 68
 (1743344804.344291)  can0  1DC   [8]  6E 00 0F FD 08 C0 C3 F1
 (1743344804.344294)  can0  1DA   [8]  C8 64 18 00 00 01 01 95
 (1743344804.356055)  can0  1D4   [8]  F7 07 00 00 87 46 00 70
 (1743344804.356104)  can0  1F2   [8]  10 64 00 00 00 1E 02 0E
 (1743344804.356105)  can0  11A   [8]  01 40 00 55 00 00 01 15
 (1743344804.356106)  can0  1DB   [8]  FF E0 C6 6A 00 00 00 62
 (1743344804.356107)  can0  1DC   [8]  6E 00 0F FD 0C CC D8 BD
 (1743344804.356108)  can0  54A   [8]  A0 00 70 02 00 00 00 36
 (1743344804.356110)  can0  54B   [8]  01 08 80 12 04 00 00 00
 (1743344804.356111)  can0  1DA   [8]  C8 64 18 00 00 01 02 9F
 (1743344804.356112)  can0  54C   [8]  93 66 00 00 00 00 6C 00
 (1743344804.356113)  can0  54F   [8]  35 01 00 00 07 C0 88 34
 (1743344804.358696)  can0  1D4   [8]  F7 07 00 00 C7 46 00 B7
 (1743344804.358745)  can0  1F2   [8]  10 64 00 00 00 1E 03 0F
 (1743344804.359137)  can0  284   [8]  00 00 00 00 00 00 C4 4A
 (1743344804.360153)  can0  11A   [8]  01 40 00 55 40 00 02 D8
 (1743344804.361842)  can0  1DB   [8]  FF E0 C6 6A 00 00 01 E7
 (1743344804.362106)  can0  1DC   [8]  6E 00 0F FD 01 0C D5 66
 (1743344804.363330)  can0  1DA   [8]  C8 64 18 00 00 01 03 1A
 (1743344804.368813)  can0  1D4   [8]  F7 07 00 00 07 46 00 7B
 (1743344804.368969)  can0  1F2   [8]  10 64 00 00 00 1E 00 0C
 (1743344804.370346)  can0  11A   [8]  01 40 00 AA 80 00 03 CE
 (1743344804.373590)  can0  1DB   [8]  FF E0 C6 6A 00 00 02 ED
 (1743344804.373641)  can0  1DC   [8]  6E 00 0F FD 05 08 C6 BA
 (1743344804.373741)  can0  1DA   [8]  C8 64 18 00 00 01 00 10
 (1743344804.373743)  can0  55A   [8]  00 38 35 00 5F 38 5B 08
 (1743344804.380094)  can0  1D4   [8]  F7 07 00 00 47 46 00 BC
 (1743344804.380189)  can0  1F2   [8]  10 64 00 00 00 1E 01 0D
 (1743344804.380192)  can0  284   [8]  00 00 00 00 00 00 C5 4B
 (1743344804.380534)  can0  11A   [8]  01 40 00 AA C0 00 00 03
 (1743344804.380542)  can0  380   [8]  02 04 10 21 00 00 00 AF
 (1743344804.380544)  can0  5BF   [8]  00 00 00 00 28 00 00 3C
 (1743344804.382670)  can0  1DB   [8]  FF E0 C6 6A 00 00 03 68
 (1743344804.382767)  can0  1DC   [8]  6E 00 0F FD 08 C0 C3 F1
 (1743344804.382769)  can0  56E   [1]  46
 (1743344804.383309)  can0  1DA   [8]  C8 64 18 00 00 01 01 95
 (1743344804.389513)  can0  1D4   [8]  F7 07 00 00 87 46 00 70
 (1743344804.389835)  can0  1F2   [8]  10 64 00 00 00 1E 02 0E
 (1743344804.390151)  can0  50C   [6]  00 00 00 03 B2 9A
 (1743344804.390677)  can0  11A   [8]  01 40 00 55 00 00 01 15
 (1743344804.391918)  can0  1DB   [8]  FF E0 C6 6A 00 00 00 62
 (1743344804.392286)  can0  1DC   [8]  6E 00 0F FD 0C CC D8 BD
 (1743344804.393262)  can0  1DA   [8]  C8 64 18 00 00 01 02 9F
 (1743344804.400001)  can0  1D4   [8]  F7 07 00 00 C7 46 00 B7
 (1743344804.400078)  can0  1F2   [8]  10 64 00 00 00 1E 03 0F
 (1743344804.400103)  can0  284   [8]  00 00 00 00 00 00 C6 4C
 (1743344804.400105)  can0  11A   [8]  01 40 00 55 40 00 02 D8
 (1743344804.401890)  can0  1DB   [8]  FF E0 C6 6A 00 00 01 E7
 (1743344804.402287)  can0  1DC   [8]  6E 00 0F FD 01 0C D5 66
 (1743344804.403413)  can0  1DA   [8]  C8 64 18 00 00 01 03 1A
 (1743344804.406668)  can0  79B   [8]  02 21 04 00 00 00 00 00
 (1743344804.409381)  can0  1D4   [8]  F7 07 00 00 07 46 00 7B
 (1743344804.409891)  can0  1F2   [8]  10 64 00 00 00 1E 00 0C
 (1743344804.409954)  can0  50A   [6]  85 72 A0 15 80 A0
 (1743344804.410313)  can0  11A   [8]  01 40 00 AA 80 00 03 CE
 (1743344804.412208)  can0  1DB   [8]  FF E0 C6 6A 00 00 02 ED
 (1743344804.412249)  can0  1DC   [8]  6E 00 0F FD 05 08 C6 BA
 (1743344804.413271)  can0  1DA   [8]  C8 64 18 00 00 01 00 10
 (1743344804.416070)  can0  7BB   [8]  10 10 61 04 02 5F 0B 02
 (1743344804.416803)  can0  79B   [8]  30 00 00 00 00 00 00 00
 (1743344804.419442)  can0  11A   [8]  01 40 00 AA C0 00 00 03
 (1743344804.419773)  can0  1D4   [8]  F7 07 00 00 47 46 00 BC
 (1743344804.420540)  can0  1F2   [8]  10 64 00 00 00 1E 01 0D
 (1743344804.420723)  can0  284   [8]  00 00 00 00 00 00 C7 4D
 (1743344804.422646)  can0  1DB   [8]  FF E0 C6 6A 00 00 03 68
 (1743344804.422731)  can0  1DC   [8]  6E 00 0F FD 08 C0 C3 F1
 (1743344804.422784)  can0  55B   [8]  EF C0 55 00 E7 00 11 BA
 (1743344804.423299)  can0  1DA   [8]  C8 64 18 00 00 01 01 95
 (1743344804.427485)  can0  7BB   [8]  21 6A 0A 02 65 0A 02 6B
 (1743344804.429780)  can0  1D4   [8]  F7 07 00 00 87 46 00 70
 (1743344804.431008)  can0  1F2   [8]  10 64 00 00 00 1E 02 0E
 (1743344804.431086)  can0  11A   [8]  01 40 00 55 00 00 01 15
 (1743344804.431089)  can0  50B   [6]  00 00 06 C0 00 60
 (1743344804.431906)  can0  1DB   [8]  FF E0 C6 6A 00 00 00 62
 (1743344804.432273)  can0  1DC   [8]  6E 00 0F FD 0C CC D8 BD
 (1743344804.433472)  can0  1DA   [8]  C8 64 18 00 00 01 02 9F
 (1743344804.434941)  can0  7BB   [8]  22 0A 0A 00 FF FF FF FF
 (1743344804.440036)  can0  11A   [8]  01 40 00 55 40 00 02 D8
 (1743344804.440905)  can0  1D4   [8]  F7 07 00 00 C7 46 00 B7
 (1743344804.441019)  can0  1F2   [8]  10 64 00 00 00 1E 03 0F
 (1743344804.441024)  can0  284   [8]  00 00 00 00 00 00 C8 4E
 (1743344804.442386)  can0  1DB   [8]  FF E0 C6 6A 00 00 01 E7
 (1743344804.442447)  can0  1DC   [8]  6E 00 0F FD 01 0C D5 66
 (1743344804.443732)  can0  1DA   [8]  C8 64 18 00 00 01 03 1A
 (1743344804.450968)  can0  11A   [8]  01 40 00 AA 80 00 03 CE
 (1743344804.451051)  can0  1D4   [8]  F7 07 00 00 07 46 00 7B
 (1743344804.451054)  can0  1F2   [8]  10 64 00 00 00 1E 00 0C
 (1743344804.451974)  can0  1DB   [8]  FF E0 C6 6A 00 00 02 ED
 (1743344804.452735)  can0  1DC   [8]  6E 00 0F FD 05 08 C6 BA
 (1743344804.452827)  can0  54A   [8]  12 00 70 02 00 00 00 36
 (1743344804.453571)  can0  54B   [8]  01 08 80 12 04 00 00 00
 (1743344804.453676)  can0  1DA   [8]  C8 64 18 00 00 01 00 10
 (1743344804.454170)  can0  54C   [8]  93 66 00 00 00 00 6C 00
 (1743344804.455130)  can0  54F   [8]  35 01 00 00 07 00 88 34
 (1743344804.459867)  can0  11A   [8]  01 40 00 AA C0 00 00 03
 (1743344804.460704)  can0  1D4   [8]  F7 07 00 00 47 46 00 BC
 (1743344804.461405)  can0  1F2   [8]  10 64 00 00 00 1E 01 0D
 (1743344804.461520)  can0  284   [8]  00 00 00 00 00 00 C9 4F
 (1743344804.462470)  can0  1DB   [8]  FF E0 C6 6A 00 00 03 68
 (1743344804.462602)  can0  1DC   [8]  6E 00 0F FD 08 C0 C3 F1
 (1743344804.463552)  can0  1DA   [8]  C8 64 18 00 00 01 01 95
 (1743344804.470362)  can0  11A   [8]  01 40 00 55 00 00 01 15
 (1743344804.471238)  can0  1D4   [8]  F7 07 00 00 87 46 00 70
 (1743344804.471295)  can0  1F2   [8]  10 64 00 00 00 1E 02 0E
 (1743344804.471964)  can0  1DB   [8]  FF E0 C6 6A 00 00 00 62
 (1743344804.472460)  can0  1DC   [8]  6E 00 0F FD 0C CC D8 BD
 (1743344804.473404)  can0  1DA   [8]  C8 64 18 00 00 01 02 9F
 (1743344804.473988)  can0  55A   [8]  00 38 35 00 5F 38 5B 08
 (1743344804.480735)  can0  380   [8]  02 04 10 21 00 00 00 B0
 (1743344804.480817)  can0  11A   [8]  01 40 00 55 40 00 02 D8
 (1743344804.480824)  can0  5BF   [8]  00 00 00 00 28 00 00 09
 (1743344804.482667)  can0  1D4   [8]  F7 07 00 00 C7 46 00 B7
 (1743344804.482737)  can0  1F2   [8]  10 64 00 00 00 1E 03 0F
 (1743344804.482741)  can0  284   [8]  00 00 00 00 00 00 CA 50
 (1743344804.482743)  can0  1DB   [8]  FF C0 C6 6A 00 00 01 B6
 (1743344804.482744)  can0  1DC   [8]  6E 00 0F FD 01 0C D5 66
 (1743344804.483393)  can0  1DA   [8]  C8 64 18 00 00 01 03 1A
 (1743344804.484093)  can0  56E   [1]  46
 (1743344804.490367)  can0  11A   [8]  01 40 00 AA 80 00 03 CE
 (1743344804.491476)  can0  1D4   [8]  F7 07 00 00 07 46 00 7B
 (1743344804.492494)  can0  1F2   [8]  10 64 00 00 00 1E 00 0C
 (1743344804.492542)  can0  50C   [6]  00 00 00 00 B2 A6
 (1743344804.492544)  can0  1DB   [8]  FF C0 C6 6A 00 00 02 BC
 (1743344804.493192)  can0  1DC   [8]  6E 00 0F FD 05 08 C6 BA
 (1743344804.493763)  can0  1DA   [8]  C8 64 18 00 00 01 00 10
 (1743344804.499693)  can0  11A   [8]  01 40 00 AA C0 00 00 03
 (1743344804.501573)  can0  1D4   [8]  F7 07 00 00 47 46 00 BC
 (1743344804.503562)  can0  1F2   [8]  10 64 00 00 00 1E 01 0D
 (1743344804.503654)  can0  1DB   [8]  FF C0 C6 6A 00 00 03 39
 (1743344804.503660)  can0  1DC   [8]  6E 00 0F FD 08 C0 C3 F1
 (1743344804.503661)  can0  284   [8]  00 00 00 00 00 00 CB 51
 (1743344804.503663)  can0  5A9   [8]  8B 2D 50 10 03 B0 00 00
 (1743344804.503801)  can0  1DA   [8]  C8 64 18 00 00 01 01 95
 (1743344804.510593)  can0  11A   [8]  01 40 00 55 00 00 01 15
 (1743344804.513036)  can0  1D4   [8]  F7 07 00 00 87 46 00 70
 (1743344804.513153)  can0  1DB   [8]  FF C0 C6 6A 00 00 00 33
 (1743344804.513980)  can0  1DC   [8]  6E 00 0F FD 0C CC D8 BD
 (1743344804.514048)  can0  1F2   [8]  10 64 00 00 00 1E 02 0E
 (1743344804.514059)  can0  50A   [6]  85 12 A0 15 80 A0
 (1743344804.514153)  can0  1DA   [8]  C8 64 18 00 00 01 02 9F
 (1743344804.520702)  can0  11A   [8]  01 40 00 55 40 00 02 D8
 (1743344804.526387)  can0  1D4   [8]  F7 07 00 00 C7 46 00 B7
 (1743344804.526509)  can0  1DB   [8]  FF C0 C6 6A 00 00 01 B6
 (1743344804.526513)  can0  1DC   [8]  6E 00 0F FD 01 0C D5 66
 (1743344804.526514)  can0  1F2   [8]  10 64 00 00 00 1E 03 0F
 (1743344804.526519)  can0  284   [8]  00 00 00 00 00 00 CC 52
 (1743344804.526521)  can0  55B   [8]  EF C0 55 00 E7 00 12 B0
 (1743344804.526529)  can0  1DA   [8]  C8 64 18 00 00 01 03 1A
 (1743344804.530550)  can0  11A   [8]  01 40 00 AA 80 00 03 CE
 (1743344804.532329)  can0  1DB   [8]  FF A0 C6 6A 00 00 02 4F
 (1743344804.532982)  can0  1D4   [8]  F7 07 00 00 07 46 00 7B
 (1743344804.533061)  can0  1DC   [8]  6E 00 0F FD 05 08 C6 BA
 (1743344804.534423)  can0  1F2   [8]  10 64 00 00 00 1E 00 0C
 (1743344804.534495)  can0  50B   [6]  00 00 06 C0 00 60
 (1743344804.534498)  can0  1DA   [8]  C8 64 18 00 00 01 00 10
 (1743344804.534500)  can0  5BC   [8]  46 C3 2C 32 C8 05 20 0A
 (1743344804.534501)  can0  5C0   [8]  8A 64 64 00 C8 E0 00 00
 (1743344804.539658)  can0  11A   [8]  01 40 00 AA C0 00 00 03
 (1743344804.542523)  can0  1DB   [8]  FF C0 C6 6A 00 00 03 39
 (1743344804.543054)  can0  1DC   [8]  6E 00 0F FD 08 C0 C3 F1
 (1743344804.543159)  can0  1D4   [8]  F7 07 00 00 47 46 00 BC
 (1743344804.543190)  can0  1F2   [8]  10 64 00 00 00 1E 01 0D
 (1743344804.543919)  can0  284   [8]  00 00 00 00 00 00 CD 53
 (1743344804.544004)  can0  1DA   [8]  C8 64 18 00 00 01 01 95
 (1743344804.550548)  can0  11A   [8]  01 40 00 55 00 00 01 15
 (1743344804.551982)  can0  1DB   [8]  FF C0 C6 6A 00 00 00 33
 (1743344804.552688)  can0  1DC   [8]  6E 00 0F FD 0C CC D8 BD
 (1743344804.552753)  can0  54A   [8]  A0 00 70 02 00 00 00 36
 (1743344804.553865)  can0  1D4   [8]  F7 07 00 00 87 46 00 70
 (1743344804.553962)  can0  1F2   [8]  10 64 00 00 00 1E 02 0E
 (1743344804.553965)  can0  54B   [8]  01 08 80 12 04 00 00 00
 (1743344804.553966)  can0  1DA   [8]  C8 64 18 00 00 01 02 9F
 (1743344804.554394)  can0  54C   [8]  93 66 00 00 00 00 6C 00
 (1743344804.556748)  can0  54F   [8]  35 01 00 00 07 40 88 34
 (1743344804.560220)  can0  11A   [8]  01 40 00 55 40 00 02 D8
 (1743344804.561975)  can0  1DB   [8]  FF C0 C6 6A 00 00 01 B6
 (1743344804.562605)  can0  1DC   [8]  6E 00 0F FD 01 0C D5 66
 (1743344804.563420)  can0  1D4   [8]  F7 07 00 00 C7 46 00 B7
 (1743344804.563484)  can0  1F2   [8]  10 64 00 00 00 1E 03 0F
 (1743344804.564166)  can0  1DA   [8]  C8 64 18 00 00 01 03 1A
 (1743344804.564258)  can0  284   [8]  00 00 00 00 00 00 CE 54
 (1743344804.570472)  can0  11A   [8]  01 40 00 AA 80 00 03 CE
 (1743344804.572364)  can0  1DB   [8]  FF A0 C6 6A 00 00 02 4F
 (1743344804.572428)  can0  1DC   [8]  6E 00 0F FD 05 08 C6 BA
 (1743344804.573297)  can0  1D4   [8]  F7 07 00 00 07 46 00 7B
 (1743344804.574054)  can0  1DA   [8]  C8 64 18 00 00 01 00 10
 (1743344804.574087)  can0  1F2   [8]  10 64 00 00 00 1E 00 0C
 (1743344804.574753)  can0  55A   [8]  00 38 35 00 5F 38 5B 08
 (1743344804.574812)  can0  5B9   [5]  60 0A 60 0A 28
 (1743344804.580636)  can0  11A   [8]  01 40 00 AA C0 00 00 03
 (1743344804.580745)  can0  380   [8]  02 04 10 21 00 00 00 8D
 (1743344804.580785)  can0  5BF   [8]  00 00 00 00 28 00 00 1A
 (1743344804.582441)  can0  1DB   [8]  FF C0 C6 6A 00 00 03 39
 (1743344804.582519)  can0  1DC   [8]  6E 00 0F FD 08 C0 C3 F1
 (1743344804.583376)  can0  1DA   [8]  C8 64 18 00 00 01 01 95
 (1743344804.584427)  can0  1D4   [8]  F7 07 00 00 47 46 00 BC
 (1743344804.584503)  can0  1F2   [8]  10 64 00 00 00 1E 01 0D
 (1743344804.584505)  can0  284   [8]  00 00 00 00 00 00 CF 55
 (1743344804.586432)  can0  56E   [1]  46
 (1743344804.590590)  can0  11A   [8]  01 40 00 55 00 00 01 15
 (1743344804.592311)  can0  1DB   [8]  FF C0 C6 6A 00 00 00 33
 (1743344804.592418)  can0  1DC   [8]  6E 00 0F FD 0C CC D8 BD
 (1743344804.593403)  can0  1DA   [8]  C8 64 18 00 00 01 02 9F
 (1743344804.594456)  can0  1D4   [8]  F7 07 00 00 87 46 00 70
 (1743344804.594549)  can0  1F2   [8]  10 64 00 00 00 1E 02 0E
 (1743344804.594552)  can0  50C   [6]  00 00 00 01 B2 31
 (1743344804.600090)  can0  11A   [8]  01 40 00 55 40 00 02 D8
 (1743344804.601961)  can0  1DB   [8]  FF C0 C6 6A 00 00 01 B6
 (1743344804.602510)  can0  1DC   [8]  6E 00 0F FD 01 0C D5 66
 (1743344804.603358)  can0  1DA   [8]  C8 64 18 00 00 01 03 1A
 (1743344804.604099)  can0  1D4   [8]  F7 07 00 00 C7 46 00 B7
 (1743344804.604872)  can0  1F2   [8]  10 64 00 00 00 1E 03 0F
 (1743344804.604963)  can0  284   [8]  00 00 00 00 00 00 D0 56
 (1743344804.610774)  can0  11A   [8]  01 40 00 AA 80 00 03 CE
 (1743344804.612408)  can0  1DB   [8]  FF C0 C6 6A 00 00 02 BC
 (1743344804.612469)  can0  1DC   [8]  6E 00 0F FD 05 08 C6 BA
 (1743344804.613347)  can0  1DA   [8]  C8 64 18 00 00 01 00 10
 (1743344804.615447)  can0  1D4   [8]  F7 07 00 00 07 46 00 7B
 (1743344804.615539)  can0  1F2   [8]  10 64 00 00 00 1E 00 0C
 (1743344804.615544)  can0  284   [8]  00 00 00 00 00 00 D1 57
 (1743344804.615546)  can0  50A   [6]  85 32 A0 15 80 A0
 (1743344804.619572)  can0  11A   [8]  01 40 00 AA C0 00 00 03
 (1743344804.622412)  can0  1DB   [8]  FF C0 C6 6A 00 00 03 39
 (1743344804.622459)  can0  1DC   [8]  6E 00 0F FD 08 C0 C3 F1
 (1743344804.622822)  can0  55B   [8]  EF C0 55 00 E7 00 13 35
 (1743344804.623496)  can0  1DA   [8]  C8 64 18 00 00 01 01 95
 (1743344804.625211)  can0  1D4   [8]  F7 07 00 00 47 46 00 BC
 (1743344804.625282)  can0  1F2   [8]  10 64 00 00 00 1E 01 0D
 (1743344804.630331)  can0  11A   [8]  01 40 00 55 00 00 01 15
 (1743344804.632217)  can0  1DB   [8]  FF E0 C6 6A 00 00 00 62
 (1743344804.632290)  can0  1DC   [8]  6E 00 0F FD 0C CC D8 BD
 (1743344804.633118)  can0  1DA   [8]  C8 64 18 00 00 01 02 9F
 (1743344804.634542)  can0  1D4   [8]  F7 07 00 00 87 46 00 70
 (1743344804.634831)  can0  1F2   [8]  10 64 00 00 00 1E 02 0E
 (1743344804.635245)  can0  284   [8]  00 00 00 00 00 00 D2 58
 (1743344804.635284)  can0  50B   [6]  00 00 06 C0 00 60
 (1743344804.639861)  can0  11A   [8]  01 40 00 55 40 00 02 D8
 (1743344804.642289)  can0  1DB   [8]  FF C0 C6 6A 00 00 01 B6
 (1743344804.642400)  can0  1DC   [8]  6E 00 0F FD 01 0C D5 66
 (1743344804.643375)  can0  1DA   [8]  C8 64 18 00 00 01 03 1A
 (1743344804.645410)  can0  1D4   [8]  F7 07 00 00 C7 46 00 B7
 (1743344804.645536)  can0  1F2   [8]  10 64 00 00 00 1E 03 0F
 (1743344804.650629)  can0  11A   [8]  01 40 00 AA 80 00 03 CE
 (1743344804.652070)  can0  1DB   [8]  FF C0 C6 6A 00 00 02 BC
 (1743344804.652855)  can0  1DC   [8]  6E 00 0F FD 05 08 C6 BA
 (1743344804.652908)  can0  54A   [8]  12 00 70 02 00 00 00 36
 (1743344804.653338)  can0  54B   [8]  01 08 80 12 04 00 00 00
 (1743344804.653870)  can0  1DA   [8]  C8 64 18 00 00 01 00 10
 (1743344804.654412)  can0  54C   [8]  93 66 00 00 00 00 6C 00
 (1743344804.655254)  can0  54F   [8]  35 01 00 00 07 80 88 34
 (1743344804.656359)  can0  1D4   [8]  F7 07 00 00 07 46 00 7B
 (1743344804.656481)  can0  1F2   [8]  10 64 00 00 00 1E 00 0C
 (1743344804.656484)  can0  284   [8]  00 00 00 00 00 00 D3 59
 (1743344804.659676)  can0  11A   [8]  01 40 00 AA C0 00 00 03
 (1743344804.662275)  can0  1DB   [8]  FF E0 C6 6A 00 00 03 68
 (1743344804.662441)  can0  1DC   [8]  6E 00 0F FD 08 C0 C3 F1
 (1743344804.663097)  can0  1DA   [8]  C8 64 18 00 00 01 01 95
 (1743344804.665767)  can0  1D4   [8]  F7 07 00 00 47 46 00 BC
 (1743344804.665828)  can0  1F2   [8]  10 64 00 00 00 1E 01 0D
 (1743344804.670170)  can0  11A   [8]  01 40 00 55 00 00 01 15
 (1743344804.671768)  can0  1DB   [8]  FF E0 C6 6A 00 00 00 62
 (1743344804.672156)  can0  1DC   [8]  6E 00 0F FD 0C CC D8 BD
 (1743344804.673310)  can0  1DA   [8]  C8 64 18 00 00 01 02 9F
 (1743344804.673789)  can0  55A   [8]  00 38 35 00 5F 38 5B 08
 (1743344804.676159)  can0  1D4   [8]  F7 07 00 00 87 46 00 70
 (1743344804.676251)  can0  1F2   [8]  10 64 00 00 00 1E 02 0E
 (1743344804.676788)  can0  284   [8]  00 00 00 00 00 00 D4 5A
 (1743344804.680710)  can0  11A   [8]  01 40 00 55 40 00 02 D8
 (1743344804.680756)  can0  380   [8]  02 04 10 21 00 00 00 9E
 (1743344804.680758)  can0  5BF   [8]  00 00 00 00 28 00 00 2B
 (1743344804.682699)  can0  1DB   [8]  FF C0 C6 6A 00 00 01 B6
 (1743344804.682785)  can0  1DC   [8]  6E 00 0F FD 01 0C D5 66
 (1743344804.683613)  can0  1DA   [8]  C8 64 18 00 00 01 03 1A
 (1743344804.686381)  can0  1D4   [8]  F7 07 00 00 C7 46 00 B7
 (1743344804.686429)  can0  1F2   [8]  10 64 00 00 00 1E 03 0F
 (1743344804.688583)  can0  56E   [1]  46
 (1743344804.690389)  can0  11A   [8]  01 40 00 AA 80 00 03 CE
 (1743344804.692410)  can0  1DB   [8]  FF C0 C6 6A 00 00 02 BC
 (1743344804.692499)  can0  1DC   [8]  6E 00 0F FD 05 08 C6 BA
 (1743344804.693363)  can0  1DA   [8]  C8 64 18 00 00 01 00 10
 (1743344804.697588)  can0  1D4   [8]  F7 07 00 00 07 46 00 7B
 (1743344804.697693)  can0  1F2   [8]  10 64 00 00 00 1E 00 0C
 (1743344804.697697)  can0  284   [8]  00 00 00 00 00 00 D5 5B
 (1743344804.697699)  can0  50C   [6]  00 00 00 02 B2 0D
 (1743344804.699636)  can0  11A   [8]  01 40 00 AA C0 00 00 03
 (1743344804.702445)  can0  1DB   [8]  FF E0 C6 6A 00 00 03 68
 (1743344804.702502)  can0  1DC   [8]  6E 00 0F FD 08 C0 C3 F1
 (1743344804.703284)  can0  1DA   [8]  C8 64 18 00 00 01 01 95
 (1743344804.707573)  can0  1D4   [8]  F7 07 00 00 47 46 00 BC
 (1743344804.707637)  can0  1F2   [8]  10 64 00 00 00 1E 01 0D
 (1743344804.710506)  can0  11A   [8]  01 40 00 55 00 00 01 15
 (1743344804.711854)  can0  1DB   [8]  FF E0 C6 6A 00 00 00 62
 (1743344804.712136)  can0  1DC   [8]  6E 00 0F FD 0C CC D8 BD
 (1743344804.713188)  can0  1DA   [8]  C8 64 18 00 00 01 02 9F
 (1743344804.716556)  can0  1D4   [8]  F7 07 00 00 87 46 00 70
 (1743344804.716808)  can0  1F2   [8]  10 64 00 00 00 1E 02 0E
 (1743344804.717203)  can0  284   [8]  00 00 00 00 00 00 D6 5C
 (1743344804.717234)  can0  50A   [6]  85 52 A0 15 80 A0
 (1743344804.719962)  can0  11A   [8]  01 40 00 55 40 00 02 D8
 (1743344804.722253)  can0  1DB   [8]  FF E0 C6 6A 00 00 01 E7
 (1743344804.722306)  can0  1DC   [8]  6E 00 0F FD 01 0C D5 66
 (1743344804.722563)  can0  55B   [8]  EF C0 AA 00 E7 00 10 78
 (1743344804.723089)  can0  1DA   [8]  C8 64 18 00 00 01 03 1A
 (1743344804.727208)  can0  1D4   [8]  F7 07 00 00 C7 46 00 B7
 (1743344804.727251)  can0  1F2   [8]  10 64 00 00 00 1E 03 0F
 (1743344804.730189)  can0  11A   [8]  01 40 00 AA 80 00 03 CE
 (1743344804.731911)  can0  1DB   [8]  FF E0 C6 6A 00 00 02 ED
 (1743344804.732143)  can0  1DC   [8]  6E 00 0F FD 05 08 C6 BA
 (1743344804.733086)  can0  1DA   [8]  C8 64 18 00 00 01 00 10
 (1743344804.737096)  can0  1D4   [8]  F7 07 00 00 07 46 00 7B
 (1743344804.737324)  can0  1F2   [8]  10 64 00 00 00 1E 00 0C
 (1743344804.737654)  can0  284   [8]  00 00 00 00 00 00 D7 5D
 (1743344804.737829)  can0  50B   [6]  00 00 06 C0 00 60
 (1743344804.739414)  can0  11A   [8]  01 40 00 AA C0 00 00 03
 (1743344804.742387)  can0  1DB   [8]  FF E0 C6 6A 00 00 03 68
 (1743344804.742459)  can0  1DC   [8]  6E 00 0F FD 08 C0 C3 F1
 (1743344804.743375)  can0  1DA   [8]  C8 64 18 00 00 01 01 95
 (1743344804.747836)  can0  1D4   [8]  F7 07 00 00 47 46 00 BC
 (1743344804.747924)  can0  1F2   [8]  10 64 00 00 00 1E 01 0D
 (1743344804.750430)  can0  11A   [8]  01 40 00 55 00 00 01 15
 (1743344804.752174)  can0  1DB   [8]  FF E0 C6 6A 00 00 00 62
 (1743344804.752214)  can0  1DC   [8]  6E 00 0F FD 0C CC D8 BD
 (1743344804.753273)  can0  1DA   [8]  C8 64 18 00 00 01 02 9F
 (1743344804.753578)  can0  54A   [8]  A0 00 70 02 00 00 00 36
 (1743344804.754143)  can0  54B   [8]  01 08 80 12 04 00 00 00
 (1743344804.755554)  can0  54C   [8]  93 66 00 00 00 00 6C 00
 (1743344804.756480)  can0  54F   [8]  35 01 00 00 07 C0 88 34
 (1743344804.757577)  can0  1D4   [8]  F7 07 00 00 87 46 00 70
 (1743344804.758041)  can0  1F2   [8]  10 64 00 00 00 1E 02 0E
 (1743344804.758091)  can0  284   [8]  00 00 00 00 00 00 D8 5E
 (1743344804.759930)  can0  11A   [8]  01 40 00 55 40 00 02 D8
 (1743344804.761744)  can0  1DB   [8]  FF E0 C6 6A 00 00 01 E7
 (1743344804.762036)  can0  1DC   [8]  6E 00 0F FD 01 0C D5 66
 (1743344804.763070)  can0  1DA   [8]  C8 64 18 00 00 01 03 1A
 (1743344804.766215)  can0  79B   [8]  02 21 01 00 00 00 00 00
 (1743344804.768586)  can0  1D4   [8]  F7 07 00 00 C7 46 00 B7
 (1743344804.768637)  can0  1F2   [8]  10 64 00 00 00 1E 03 0F
 (1743344804.770117)  can0  11A   [8]  01 40 00 AA 80 00 03 CE
 (1743344804.772315)  can0  1DB   [8]  FF E0 C6 6A 00 00 02 ED
 (1743344804.772360)  can0  1DC   [8]  6E 00 0F FD 05 08 C6 BA
 (1743344804.773511)  can0  1DA   [8]  C8 64 18 00 00 01 00 10
 (1743344804.773541)  can0  55A   [8]  00 38 35 00 5F 38 5B 08
 (1743344804.776204)  can0  7BB   [8]  10 29 61 01 FF FF F9 2A
 (1743344804.776603)  can0  79B   [8]  30 00 00 00 00 00 00 00
 (1743344804.778037)  can0  1D4   [8]  F7 07 00 00 07 46 00 7B
 (1743344804.778287)  can0  1F2   [8]  10 64 00 00 00 1E 00 0C
 (1743344804.778569)  can0  284   [8]  00 00 00 00 00 00 D9 5F
 (1743344804.779247)  can0  11A   [8]  01 40 00 AA C0 00 00 03
 (1743344804.780023)  can0  380   [8]  02 04 10 21 00 00 00 AF
 (1743344804.780346)  can0  5BF   [8]  00 00 00 00 28 00 00 3C
 (1743344804.782330)  can0  1DB   [8]  FF E0 C6 6A 00 00 03 68
 (1743344804.782384)  can0  1DC   [8]  6E 00 0F FD 08 C0 C3 F1
 (1743344804.783169)  can0  1DA   [8]  C8 64 18 00 00 01 01 95
 (1743344804.784478)  can0  7BB   [8]  21 02 88 FF FF FC B7 FF
 (1743344804.788218)  can0  1D4   [8]  F7 07 00 00 47 46 00 BC
 (1743344804.788518)  can0  1F2   [8]  10 64 00 00 00 1E 01 0D
 (1743344804.790218)  can0  11A   [8]  01 40 00 55 00 00 01 15
 (1743344804.790269)  can0  56E   [1]  46
 (1743344804.792034)  can0  1DB   [8]  FF E0 C6 6A 00 00 00 62
 (1743344804.792078)  can0  1DC   [8]  6E 00 0F FD 0C CC D8 BD
 (1743344804.793211)  can0  1DA   [8]  C8 64 18 00 00 01 02 9F
 (1743344804.795579)  can0  7BB   [8]  22 FF FF FF 00 00 2A F8
 (1743344804.798836)  can0  1D4   [8]  F7 07 00 00 87 46 00 70
 (1743344804.798938)  can0  1F2   [8]  10 64 00 00 00 1E 02 0E
 (1743344804.798989)  can0  284   [8]  00 00 00 00 00 00 DA 60
 (1743344804.799273)  can0  50C   [6]  00 00 00 03 5D F4
 (1743344804.800013)  can0  11A   [8]  01 40 00 55 40 00 02 D8
 (1743344804.802290)  can0  1DB   [8]  FF E0 C6 6A 00 00 01 E7
 (1743344804.802345)  can0  1DC   [8]  6E 00 0F FD 01 0C D5 66
 (1743344804.803269)  can0  1DA   [8]  C8 64 18 00 00 01 03 1A
 (1743344804.804637)  can0  7BB   [8]  23 9B 39 32 BD 03 9C 00
 (1743344804.809382)  can0  1D4   [8]  F7 07 00 00 C7 46 00 B7
 (1743344804.809497)  can0  1F2   [8]  10 64 00 00 00 1E 03 0F
 (1743344804.810282)  can0  11A   [8]  01 40 00 AA 80 00 03 CE
 (1743344804.812059)  can0  1DB   [8]  FF E0 C6 6A 00 00 02 ED
 (1743344804.812101)  can0  1DC   [8]  6E 00 0F FD 05 08 C6 BA
 (1743344804.813292)  can0  1DA   [8]  C8 64 18 00 00 01 00 10
 (1743344804.815707)  can0  7BB   [8]  24 5C 29 F0 00 0E A5 6C
 (1743344804.819149)  can0  1D4   [8]  F7 07 00 00 07 46 00 7B
 (1743344804.820000)  can0  1F2   [8]  10 64 00 00 00 1E 00 0C
 (1743344804.820053)  can0  11A   [8]  01 40 00 AA C0 00 00 03
 (1743344804.820160)  can0  284   [8]  00 00 00 00 00 00 DB 61
 (1743344804.820164)  can0  50A   [6]  85 72 A0 15 80 A0
 (1743344804.823234)  can0  1DB   [8]  FF E0 C6 6A 00 00 03 68
 (1743344804.823288)  can0  1DC   [8]  6E 00 0F FD 08 C0 C3 F1
 (1743344804.824174)  can0  55B   [8]  EF C0 AA 00 E7 00 11 FD
 (1743344804.824267)  can0  1DA   [8]  C8 64 18 00 00 01 01 95
 (1743344804.828056)  can0  7BB   [8]  25 00 0A 3B 63 80 00 05
 (1743344804.829768)  can0  1D4   [8]  F7 07 00 00 47 46 00 BC
 (1743344804.829812)  can0  1F2   [8]  10 64 00 00 00 1E 01 0D
 (1743344804.830213)  can0  11A   [8]  01 40 00 55 00 00 01 15
 (1743344804.832005)  can0  1DB   [8]  FF E0 C6 6A 00 00 00 62
 (1743344804.832388)  can0  1DC   [8]  6E 00 0F FD 0C CC D8 BD
 (1743344804.833260)  can0  1DA   [8]  C8 64 18 00 00 01 02 9F
 (1743344804.840678)  can0  1D4   [8]  F7 07 00 00 87 46 00 70
 (1743344804.840753)  can0  1F2   [8]  10 64 00 00 00 1E 02 0E
 (1743344804.840894)  can0  11A   [8]  01 40 00 55 40 00 02 D8
 (1743344804.840900)  can0  284   [8]  00 00 00 00 00 00 DC 62
 (1743344804.840902)  can0  50B   [6]  00 00 06 C0 00 60
 (1743344804.841957)  can0  1DB   [8]  FF C0 C6 6A 00 00 01 B6
 (1743344804.842568)  can0  1DC   [8]  6E 00 0F FD 01 0C D5 66
 (1743344804.843392)  can0  1DA   [8]  C8 64 18 00 00 01 03 1A
 (1743344804.850324)  can0  1D4   [8]  F7 07 00 00 C7 46 00 B7
 (1743344804.850683)  can0  1F2   [8]  10 64 00 00 00 1E 03 0F
 (1743344804.850823)  can0  11A   [8]  01 40 00 AA 80 00 03 CE
 (1743344804.851922)  can0  1DB   [8]  FF C0 C6 6A 00 00 02 BC
 (1743344804.852728)  can0  1DC   [8]  6E 00 0F FD 05 08 C6 BA
 (1743344804.852821)  can0  54A   [8]  12 00 70 02 00 00 00 36
 (1743344804.853852)  can0  1DA   [8]  C8 64 18 00 00 01 00 10
 (1743344804.854179)  can0  54B   [8]  01 08 80 12 04 00 00 00
 (1743344804.854770)  can0  54C   [8]  93 66 00 00 00 00 6C 00
 (1743344804.855453)  can0  54F   [8]  35 01 00 00 07 00 88 34
 (1743344804.859890)  can0  11A   [8]  01 40 00 AA C0 00 00 03
 (1743344804.860912)  can0  1D4   [8]  F7 07 00 00 07 46 00 7B
 (1743344804.861001)  can0  1F2   [8]  10 64 00 00 00 1E 00 0C
 (1743344804.861004)  can0  284   [8]  00 00 00 00 00 00 DD 63
 (1743344804.861964)  can0  1DB   [8]  FF C0 C6 6A 00 00 03 39
 (1743344804.862489)  can0  1DC   [8]  6E 00 0F FD 08 C0 C3 F1
 (1743344804.863320)  can0  1DA   [8]  C8 64 18 00 00 01 01 95
 (1743344804.866126)  can0  79B   [8]  02 21 02 00 00 00 00 00
 (1743344804.870690)  can0  11A   [8]  01 40 00 55 00 00 01 15
 (1743344804.870759)  can0  1D4   [8]  F7 07 00 00 47 46 00 BC
 (1743344804.871322)  can0  1F2   [8]  10 64 00 00 00 1E 01 0D
 (1743344804.871939)  can0  1DB   [8]  FF C0 C6 6A 00 00 00 33
 (1743344804.872465)  can0  1DC   [8]  6E 00 0F FD 0C CC D8 BD
 (1743344804.873934)  can0  1DA   [8]  C8 64 18 00 00 01 02 9F
 (1743344804.873997)  can0  55A   [8]  00 38 35 00 5F 38 5B 08
 (1743344804.876201)  can0  7BB   [8]  10 C6 61 02 10 34 10 36
 (1743344804.876851)  can0  79B   [8]  30 00 00 00 00 00 00 00
 (1743344804.879849)  can0  11A   [8]  01 40 00 55 40 00 02 D8
 (1743344804.880158)  can0  380   [8]  02 04 10 21 00 00 00 B0
 (1743344804.880396)  can0  1D4   [8]  F7 07 00 00 87 46 00 70
 (1743344804.882092)  can0  1F2   [8]  10 64 00 00 00 1E 02 0E
 (1743344804.883105)  can0  284   [8]  00 00 00 00 00 00 DE 64
 (1743344804.883132)  can0  5BF   [8]  00 00 00 00 28 00 00 09
 (1743344804.884001)  can0  1DB   [8]  FF C0 C6 6A 00 00 01 B6
 (1743344804.884046)  can0  1DC   [8]  6E 00 0F FD 01 0C D5 66
 (1743344804.884048)  can0  1DA   [8]  C8 64 18 00 00 01 03 1A
 (1743344804.884770)  can0  7BB   [8]  21 10 37 10 36 10 29 10
 (1743344804.890576)  can0  11A   [8]  01 40 00 AA 80 00 03 CE
 (1743344804.891291)  can0  1D4   [8]  F7 07 00 00 C7 46 00 B7
 (1743344804.891352)  can0  1F2   [8]  10 64 00 00 00 1E 03 0F
 (1743344804.891894)  can0  1DB   [8]  FF C0 C6 6A 00 00 02 BC
 (1743344804.892428)  can0  1DC   [8]  6E 00 0F FD 05 08 C6 BA
 (1743344804.892463)  can0  56E   [1]  46
 (1743344804.893267)  can0  1DA   [8]  C8 64 18 00 00 01 00 10
 (1743344804.895731)  can0  7BB   [8]  22 24 10 26 10 1F 10 30
 (1743344804.899678)  can0  11A   [8]  01 40 00 AA C0 00 00 03
 (1743344804.901137)  can0  1D4   [8]  F7 07 00 00 07 46 00 7B
 (1743344804.902691)  can0  1F2   [8]  10 64 00 00 00 1E 00 0C
 (1743344804.902796)  can0  284   [8]  00 00 00 00 00 00 DF 65
 (1743344804.902798)  can0  50C   [6]  00 00 00 00 5D C8
 (1743344804.902800)  can0  1DB   [8]  FF C0 C6 6A 00 00 03 39
 (1743344804.902801)  can0  1DC   [8]  6E 00 0F FD 08 C0 C3 F1
 (1743344804.903222)  can0  1DA   [8]  C8 64 18 00 00 01 01 95
 (1743344804.904544)  can0  7BB   [8]  23 10 30 10 30 10 2D 10
 (1743344804.910651)  can0  11A   [8]  01 40 00 55 00 00 01 15
 (1743344804.911339)  can0  1D4   [8]  F7 07 00 00 47 46 00 BC
 (1743344804.912403)  can0  1F2   [8]  10 64 00 00 00 1E 01 0D
 (1743344804.912498)  can0  1DB   [8]  FF C0 C6 6A 00 00 00 33
 (1743344804.912501)  can0  1DC   [8]  6E 00 0F FD 0C CC D8 BD
 (1743344804.913488)  can0  1DA   [8]  C8 64 18 00 00 01 02 9F
 (1743344804.915742)  can0  7BB   [8]  24 30 10 2D 10 31 10 2D
 (1743344804.920090)  can0  11A   [8]  01 40 00 55 40 00 02 D8
 (1743344804.921603)  can0  1D4   [8]  F7 07 00 00 87 46 00 70
 (1743344804.922922)  can0  1F2   [8]  10 64 00 00 00 1E 02 0E
 (1743344804.923020)  can0  284   [8]  00 00 00 00 00 00 E0 66
 (1743344804.923025)  can0  1DB   [8]  FF C0 C6 6A 00 00 01 B6
 (1743344804.923823)  can0  1DC   [8]  6E 00 0F FD 01 0C D5 66
 (1743344804.923849)  can0  50A   [6]  85 12 A0 15 80 A0
 (1743344804.923933)  can0  55B   [8]  EF C0 AA 00 E7 00 12 F7
 (1743344804.923936)  can0  1DA   [8]  C8 64 18 00 00 01 03 1A
 (1743344804.927852)  can0  7BB   [8]  25 10 28 10 26 10 26 10
 (1743344804.930306)  can0  11A   [8]  01 40 00 AA 80 00 03 CE
 (1743344804.932254)  can0  1D4   [8]  F7 07 00 00 C7 46 00 B7
 (1743344804.932320)  can0  1DB   [8]  FF C0 C6 6A 00 00 02 BC
 (1743344804.932958)  can0  1DC   [8]  6E 00 0F FD 05 08 C6 BA
 (1743344804.933018)  can0  1F2   [8]  10 64 00 00 00 1E 03 0F
 (1743344804.933468)  can0  1DA   [8]  C8 64 18 00 00 01 00 10
 (1743344804.935692)  can0  7BB   [8]  26 24 10 29 10 29 10 28
 (1743344804.940242)  can0  11A   [8]  01 40 00 AA C0 00 00 03
 (1743344804.945504)  can0  1DB   [8]  FF C0 C6 6A 00 00 03 39
 (1743344804.946121)  can0  1D4   [8]  F7 07 00 00 07 46 00 7B
 (1743344804.946126)  can0  1DC   [8]  6E 00 0F FD 08 C0 C3 F1
 (1743344804.946127)  can0  1F2   [8]  10 64 00 00 00 1E 00 0C
 (1743344804.946129)  can0  284   [8]  00 00 00 00 00 00 E1 67
 (1743344804.946130)  can0  50B   [6]  00 00 06 C0 00 60
 (1743344804.946132)  can0  1DA   [8]  C8 64 18 00 00 01 01 95
 (1743344804.946219)  can0  7BB   [8]  27 10 28 10 2B 10 2D 10
 (1743344804.951995)  can0  11A   [8]  01 40 00 55 00 00 01 15
 (1743344804.952365)  can0  1DB   [8]  FF C0 C6 6A 00 00 00 33
 (1743344804.953442)  can0  1DC   [8]  6E 00 0F FD 0C CC D8 BD
 (1743344804.953709)  can0  1D4   [8]  F7 07 00 00 47 46 00 BC
 (1743344804.953736)  can0  1F2   [8]  10 64 00 00 00 1E 01 0D
 (1743344804.953741)  can0  1DA   [8]  C8 64 18 00 00 01 02 9F
 (1743344804.953879)  can0  54A   [8]  A0 00 70 02 00 00 00 36
 (1743344804.954525)  can0  54B   [8]  01 08 80 12 04 00 00 00
 (1743344804.955510)  can0  54C   [8]  93 66 00 00 00 00 6C 00
 (1743344804.956464)  can0  7BB   [8]  28 2D 10 29 10 30 10 31
 (1743344804.957183)  can0  54F   [8]  35 01 00 00 07 40 88 34
 (1743344804.960192)  can0  11A   [8]  01 40 00 55 40 00 02 D8
 (1743344804.961942)  can0  1DB   [8]  FF A0 C6 6A 00 00 01 45
 (1743344804.963584)  can0  1DC   [8]  6E 00 0F FD 01 0C D5 66
 (1743344804.963632)  can0  1D4   [8]  F7 07 00 00 87 46 00 70
 (1743344804.963634)  can0  1F2   [8]  10 64 00 00 00 1E 02 0E
 (1743344804.963636)  can0  284   [8]  00 00 00 00 00 00 E2 68
 (1743344804.963638)  can0  1DA   [8]  C8 64 18 00 00 01 03 1A
 (1743344804.964776)  can0  7BB   [8]  29 10 30 10 2D 10 28 10
 (1743344804.970546)  can0  11A   [8]  01 40 00 AA 80 00 03 CE
 (1743344804.971965)  can0  1DB   [8]  FF A0 C6 6A 00 00 02 4F
 (1743344804.972485)  can0  1DC   [8]  6E 00 0F FD 05 08 C6 BA
 (1743344804.973713)  can0  1D4   [8]  F7 07 00 00 C7 46 00 B7
 (1743344804.973780)  can0  1F2   [8]  10 64 00 00 00 1E 03 0F
 (1743344804.973782)  can0  1DA   [8]  C8 64 18 00 00 01 00 10
 (1743344804.973784)  can0  55A   [8]  00 38 35 00 5F 38 5B 08
 (1743344804.975738)  can0  7BB   [8]  2A 2B 10 28 10 29 10 2D
 (1743344804.979899)  can0  11A   [8]  01 40 00 AA C0 00 00 03
 (1743344804.981215)  can0  380   [8]  02 04 10 21 00 00 00 8D
 (1743344804.981280)  can0  5BF   [8]  00 00 00 00 28 00 00 1A
 (1743344804.982530)  can0  1DB   [8]  FF C0 C6 6A 00 00 03 39
 (1743344804.982592)  can0  1DC   [8]  6E 00 0F FD 08 C0 C3 F1
 (1743344804.983077)  can0  1D4   [8]  F7 07 00 00 07 46 00 7B
 (1743344804.984038)  can0  1F2   [8]  10 64 00 00 00 1E 00 0C
 (1743344804.984136)  can0  1DA   [8]  C8 64 18 00 00 01 01 95
 (1743344804.984139)  can0  284   [8]  00 00 00 00 00 00 E3 69
 (1743344804.984674)  can0  7BB   [8]  2B 10 2E 10 2D 10 29 10
 (1743344804.990643)  can0  11A   [8]  01 40 00 55 00 00 01 15
 (1743344804.992206)  can0  1DB   [8]  FF C0 C6 6A 00 00 00 33
 (1743344804.992716)  can0  1DC   [8]  6E 00 0F FD 0C CC D8 BD
 (1743344804.993386)  can0  1DA   [8]  C8 64 18 00 00 01 02 9F
 (1743344804.994332)  can0  1D4   [8]  F7 07 00 00 47 46 00 BC
 (1743344804.994405)  can0  1F2   [8]  10 64 00 00 00 1E 01 0D
 (1743344804.994463)  can0  56E   [1]  46
 (1743344804.995773)  can0  7BB   [8]  2C 1F 10 1F 10 1D 10 1F
 (1743344805.000332)  can0  11A   [8]  01 40 00 55 40 00 02 D8
 (1743344805.001935)  can0  1DB   [8]  FF C0 C6 6A 00 00 01 B6
 (1743344805.002452)  can0  1DC   [8]  6E 00 0F FD 01 0C D5 66
 (1743344805.003348)  can0  1DA   [8]  C8 64 18 00 00 01 03 1A
 (1743344805.004623)  can0  1D4   [8]  F7 07 00 00 87 46 00 70
 (1743344805.004691)  can0  1F2   [8]  10 64 00 00 00 1E 02 0E
 (1743344805.004694)  can0  284   [8]  00 00 00 00 00 00 E4 6A
 (1743344805.004696)  can0  50C   [6]  00 00 00 01 5D 5F
 (1743344805.004813)  can0  7BB   [8]  2D 10 34 10 34 10 34 10
 (1743344805.010682)  can0  11A   [8]  01 40 00 AA 80 00 03 CE
 (1743344805.012401)  can0  1DB   [8]  FF C0 C6 6A 00 00 02 BC
 (1743344805.012467)  can0  1DC   [8]  6E 00 0F FD 05 08 C6 BA
 (1743344805.013324)  can0  1DA   [8]  C8 64 18 00 00 01 00 10
 (1743344805.014773)  can0  1D4   [8]  F7 07 00 00 C7 46 00 B7
 (1743344805.014900)  can0  1F2   [8]  10 64 00 00 00 1E 03 0F
 (1743344805.014904)  can0  5A9   [8]  8B 2D 50 10 03 B0 00 00
 (1743344805.015987)  can0  7BB   [8]  2E 35 10 2B 10 31 10 31
 (1743344805.019645)  can0  11A   [8]  01 40 00 AA C0 00 00 03
 (1743344805.022162)  can0  1DB   [8]  FF C0 C6 6A 00 00 03 39
 (1743344805.023121)  can0  1DC   [8]  6E 00 0F FD 08 C0 C3 F1
 (1743344805.023179)  can0  55B   [8]  EF C0 AA 00 E7 00 13 72
 (1743344805.023603)  can0  1DA   [8]  C8 64 18 00 00 01 01 95
 (1743344805.025097)  can0  1D4   [8]  F7 07 00 00 07 46 00 7B
 (1743344805.025195)  can0  1F2   [8]  10 64 00 00 00 1E 00 0C
 (1743344805.025198)  can0  284   [8]  00 00 00 00 00 00 E5 6B
 (1743344805.025199)  can0  50A   [6]  85 32 A0 15 80 A0
 (1743344805.027945)  can0  7BB   [8]  2F 10 2D 10 29 10 28 10
 (1743344805.030392)  can0  11A   [8]  01 40 00 55 00 00 01 15
 (1743344805.032602)  can0  1DB   [8]  FF C0 C6 6A 00 00 00 33
 (1743344805.032697)  can0  1DC   [8]  6E 00 0F FD 0C CC D8 BD
 (1743344805.033586)  can0  5BC   [8]  46 C3 2C 32 C9 05 40 00
 (1743344805.033695)  can0  5C0   [8]  C0 64 64 00 C8 DC 00 00
 (1743344805.033698)  can0  1DA   [8]  C8 64 18 00 00 01 02 9F
 (1743344805.034314)  can0  1D4   [8]  F7 07 00 00 47 46 00 BC
 (1743344805.035117)  can0  1F2   [8]  10 64 00 00 00 1E 01 0D
 (1743344805.035220)  can0  284   [8]  00 00 00 00 00 00 E6 6C
 (1743344805.036103)  can0  7BB   [8]  20 29 10 28 10 2D 10 2B
 (1743344805.040342)  can0  11A   [8]  01 40 00 55 40 00 02 D8
 (1743344805.042587)  can0  1DB   [8]  FF C0 C6 6A 00 00 01 B6
 (1743344805.042642)  can0  1DC   [8]  6E 00 0F FD 01 0C D5 66
 (1743344805.043447)  can0  1DA   [8]  C8 64 18 00 00 01 03 1A
 (1743344805.045238)  can0  1D4   [8]  F7 07 00 00 87 46 00 70
 (1743344805.045322)  can0  1F2   [8]  10 64 00 00 00 1E 02 0E
 (1743344805.045487)  can0  50B   [6]  00 00 06 C0 00 60
 (1743344805.045491)  can0  7BB   [8]  21 10 2B 10 29 10 2B 10
 (1743344805.050475)  can0  11A   [8]  01 40 00 AA 80 00 03 CE
 (1743344805.051924)  can0  1DB   [8]  FF C0 C6 6A 00 00 02 BC
 (1743344805.052742)  can0  1DC   [8]  6E 00 0F FD 05 08 C6 BA
 (1743344805.052865)  can0  54A   [8]  12 00 70 02 00 00 00 36
 (1743344805.053326)  can0  1DA   [8]  C8 64 18 00 00 01 00 10
 (1743344805.053810)  can0  54B   [8]  01 08 80 12 04 00 00 00
 (1743344805.054572)  can0  54C   [8]  93 66 00 00 00 00 6C 00
 (1743344805.055990)  can0  1D4   [8]  F7 07 00 00 C7 46 00 B7
 (1743344805.056098)  can0  1F2   [8]  10 64 00 00 00 1E 03 0F
 (1743344805.056102)  can0  284   [8]  00 00 00 00 00 00 E7 6D
 (1743344805.056143)  can0  54F   [8]  35 01 00 00 07 80 88 34
 (1743344805.056145)  can0  7BB   [8]  22 29 10 28 10 25 10 29
 (1743344805.059843)  can0  11A   [8]  01 40 00 AA C0 00 00 03
 (1743344805.061975)  can0  1DB   [8]  FF C0 C6 6A 00 00 03 39
 (1743344805.062548)  can0  1DC   [8]  6E 00 0F FD 08 C0 C3 F1
 (1743344805.063304)  can0  1DA   [8]  C8 64 18 00 00 01 01 95
 (1743344805.064721)  can0  7BB   [8]  23 10 29 10 29 10 29 10
 (1743344805.066143)  can0  1D4   [8]  F7 07 00 00 07 46 00 7B
 (1743344805.066204)  can0  1F2   [8]  10 64 00 00 00 1E 00 0C
 (1743344805.070338)  can0  11A   [8]  01 40 00 55 00 00 01 15
 (1743344805.071946)  can0  1DB   [8]  FF C0 C6 6A 00 00 00 33
 (1743344805.072561)  can0  1DC   [8]  6E 00 0F FD 0C CC D8 BD
 (1743344805.073845)  can0  1DA   [8]  C8 64 18 00 00 01 02 9F
 (1743344805.073946)  can0  55A   [8]  00 38 35 00 5F 38 5B 08
 (1743344805.075619)  can0  1D4   [8]  F7 07 00 00 47 46 00 BC
 (1743344805.076536)  can0  1F2   [8]  10 64 00 00 00 1E 01 0D
 (1743344805.076677)  can0  284   [8]  00 00 00 00 00 00 E8 6E
 (1743344805.076722)  can0  7BB   [8]  24 32 10 32 10 32 10 32
 (1743344805.080413)  can0  11A   [8]  01 40 00 55 40 00 02 D8
 (1743344805.081307)  can0  380   [8]  02 04 10 21 00 00 00 9E
 (1743344805.081368)  can0  5BF   [8]  00 00 00 00 28 00 00 2B
 (1743344805.082759)  can0  1DB   [8]  FF C0 C6 6A 00 00 01 B6
 (1743344805.082809)  can0  1DC   [8]  6E 00 0F FD 01 0C D5 66
 (1743344805.083842)  can0  1DA   [8]  C8 64 18 00 00 01 03 1A
 (1743344805.084643)  can0  7BB   [8]  25 10 2B 10 2B 10 2B 10
 (1743344805.085537)  can0  1D4   [8]  F7 07 00 00 87 46 00 70
 (1743344805.086244)  can0  1F2   [8]  10 64 00 00 00 1E 02 0E
 (1743344805.086298)  can0  5B9   [5]  60 0A 60 0A 28
 (1743344805.090437)  can0  11A   [8]  01 40 00 AA 80 00 03 CE
 (1743344805.091980)  can0  1DB   [8]  FF C0 C6 6A 00 00 02 BC
 (1743344805.092511)  can0  1DC   [8]  6E 00 0F FD 05 08 C6 BA
 (1743344805.093347)  can0  1DA   [8]  C8 64 18 00 00 01 00 10
 (1743344805.095810)  can0  1D4   [8]  F7 07 00 00 C7 46 00 B7
 (1743344805.096727)  can0  1F2   [8]  10 64 00 00 00 1E 03 0F
 (1743344805.096811)  can0  284   [8]  00 00 00 00 00 00 E9 6F
 (1743344805.096814)  can0  56E   [1]  46
 (1743344805.096816)  can0  7BB   [8]  26 28 10 2D 10 2B 10 2B
 (1743344805.099547)  can0  11A   [8]  01 40 00 AA C0 00 00 03
 (1743344805.101971)  can0  1DB   [8]  FF C0 C6 6A 00 00 03 39
 (1743344805.102494)  can0  1DC   [8]  6E 00 0F FD 08 C0 C3 F1
 (1743344805.103277)  can0  1DA   [8]  C8 64 18 00 00 01 01 95
 (1743344805.104719)  can0  7BB   [8]  27 10 29 10 24 10 24 10
 (1743344805.106113)  can0  1D4   [8]  F7 07 00 00 07 46 00 7B
 (1743344805.106883)  can0  1F2   [8]  10 64 00 00 00 1E 00 0C
 (1743344805.106951)  can0  50C   [6]  00 00 00 02 5D 63
 (1743344805.110603)  can0  11A   [8]  01 40 00 55 00 00 01 15
 (1743344805.112344)  can0  1DB   [8]  FF E0 C6 6A 00 00 00 62
 (1743344805.112411)  can0  1DC   [8]  6E 00 0F FD 0C CC D8 BD
 (1743344805.113288)  can0  1DA   [8]  C8 64 18 00 00 01 02 9F
 (1743344805.115028)  can0  7BB   [8]  28 25 10 24 10 2D 10 32
 (1743344805.116260)  can0  1D4   [8]  F7 07 00 00 47 46 00 BC
 (1743344805.116918)  can0  1F2   [8]  10 64 00 00 00 1E 01 0D
 (1743344805.116978)  can0  284   [8]  00 00 00 00 00 00 EA 70
 (1743344805.120198)  can0  11A   [8]  01 40 00 55 40 00 02 D8
 (1743344805.123241)  can0  1DB   [8]  FF C0 C6 6A 00 00 01 B6
 (1743344805.123313)  can0  1DC   [8]  6E 00 0F FD 01 0C D5 66
 (1743344805.123316)  can0  55B   [8]  EF C0 AA 00 E7 00 10 78
 (1743344805.123724)  can0  1DA   [8]  C8 64 18 00 00 01 03 1A
 (1743344805.127286)  can0  1D4   [8]  F7 07 00 00 87 46 00 70
 (1743344805.127379)  can0  1F2   [8]  10 64 00 00 00 1E 02 0E
 (1743344805.127382)  can0  50A   [6]  85 52 A0 15 80 A0
 (1743344805.127952)  can0  7BB   [8]  29 10 2E 10 2D 10 34 10
 (1743344805.130215)  can0  11A   [8]  01 40 00 AA 80 00 03 CE
 (1743344805.132337)  can0  1DB   [8]  FF E0 C6 6A 00 00 02 ED
 (1743344805.132408)  can0  1DC   [8]  6E 00 0F FD 05 08 C6 BA
 (1743344805.133082)  can0  1DA   [8]  C8 64 18 00 00 01 00 10
 (1743344805.134757)  can0  7BB   [8]  2A 31 10 30 10 31 10 2D
 (1743344805.136481)  can0  1D4   [8]  F7 07 00 00 C7 46 00 B7
 (1743344805.136773)  can0  1F2   [8]  10 64 00 00 00 1E 03 0F
 (1743344805.136993)  can0  284   [8]  00 00 00 00 00 00 EB 71
 (1743344805.139390)  can0  11A   [8]  01 40 00 AA C0 00 00 03
 (1743344805.142200)  can0  1DB   [8]  FF E0 C6 6A 00 00 03 68
 (1743344805.142274)  can0  1DC   [8]  6E 00 0F FD 08 C0 C3 F1
 (1743344805.143627)  can0  1DA   [8]  C8 64 18 00 00 01 01 95
 (1743344805.144731)  can0  7BB   [8]  2B 10 29 10 2D 10 24 9B
 (1743344805.146985)  can0  1D4   [8]  F7 07 00 00 07 46 00 7B
 (1743344805.147908)  can0  1F2   [8]  10 64 00 00 00 1E 00 0C
 (1743344805.148000)  can0  50B   [6]  00 00 06 C0 00 60
 (1743344805.150380)  can0  11A   [8]  01 40 00 55 00 00 01 15
 (1743344805.152367)  can0  1DB   [8]  FF C0 C6 6A 00 00 00 33
 (1743344805.152422)  can0  1DC   [8]  6E 00 0F FD 0C CC D8 BD
 (1743344805.153136)  can0  54A   [8]  A0 00 70 02 00 00 00 36
 (1743344805.154330)  can0  1DA   [8]  C8 64 18 00 00 01 02 9F
 (1743344805.154421)  can0  54B   [8]  01 08 80 12 04 00 00 00
 (1743344805.155002)  can0  54C   [8]  93 66 00 00 00 00 6C 00
 (1743344805.156511)  can0  54F   [8]  35 01 00 00 07 C0 88 34
 (1743344805.156571)  can0  7BB   [8]  2C 02 9B 02 FF FF FF FF
 (1743344805.157618)  can0  1D4   [8]  F7 07 00 00 47 46 00 BC
 (1743344805.157682)  can0  1F2   [8]  10 64 00 00 00 1E 01 0D
 (1743344805.158274)  can0  284   [8]  00 00 00 00 00 00 EC 72
 (1743344805.160174)  can0  11A   [8]  01 40 00 55 40 00 02 D8
 (1743344805.161809)  can0  1DB   [8]  FF C0 C6 6A 00 00 01 B6
 (1743344805.163949)  can0  1DC   [8]  6E 00 0F FD 01 0C D5 66
 (1743344805.164047)  can0  1DA   [8]  C8 64 18 00 00 01 03 1A
 (1743344805.167542)  can0  1D4   [8]  F7 07 00 00 87 46 00 70
 (1743344805.167606)  can0  1F2   [8]  10 64 00 00 00 1E 02 0E
 (1743344805.170134)  can0  11A   [8]  01 40 00 AA 80 00 03 CE
 (1743344805.171784)  can0  1DB   [8]  FF C0 C6 6A 00 00 02 BC
 (1743344805.172100)  can0  1DC   [8]  6E 00 0F FD 05 08 C6 BA
 (1743344805.173178)  can0  1DA   [8]  C8 64 18 00 00 01 00 10
 (1743344805.173533)  can0  55A   [8]  00 38 35 00 5F 38 5B 08
 (1743344805.178403)  can0  1D4   [8]  F7 07 00 00 C7 46 00 B7
 (1743344805.178535)  can0  1F2   [8]  10 64 00 00 00 1E 03 0F
 (1743344805.178765)  can0  284   [8]  00 00 00 00 00 00 ED 73
 (1743344805.179689)  can0  11A   [8]  01 40 00 AA C0 00 00 03
 (1743344805.181086)  can0  380   [8]  02 04 10 21 00 00 00 AF
 (1743344805.181147)  can0  5BF   [8]  00 00 00 00 28 00 00 3C
 (1743344805.182018)  can0  1DB   [8]  FF C0 C6 6A 00 00 03 39
 (1743344805.182544)  can0  1DC   [8]  6E 00 0F FD 08 C0 C3 F1
 (1743344805.183295)  can0  1DA   [8]  C8 64 18 00 00 01 01 95
 (1743344805.188418)  can0  1D4   [8]  F7 07 00 00 07 46 00 7B
 (1743344805.188484)  can0  1F2   [8]  10 64 00 00 00 1E 00 0C
 (1743344805.190380)  can0  11A   [8]  01 40 00 55 00 00 01 15
 (1743344805.192519)  can0  1DB   [8]  FF C0 C6 6A 00 00 00 33
 (1743344805.192593)  can0  1DC   [8]  6E 00 0F FD 0C CC D8 BD
 (1743344805.193471)  can0  1DA   [8]  C8 64 18 00 00 01 02 9F
 (1743344805.199303)  can0  1D4   [8]  F7 07 00 00 47 46 00 BC
 (1743344805.199402)  can0  1F2   [8]  10 64 00 00 00 1E 01 0D
 (1743344805.199405)  can0  284   [8]  00 00 00 00 00 00 EE 74
 (1743344805.199407)  can0  56E   [1]  46
 (1743344805.200193)  can0  11A   [8]  01 40 00 55 40 00 02 D8
 (1743344805.207798)  can0  1DB   [8]  FF C0 C6 6A 00 00 01 B6
 (1743344805.207903)  can0  1DC   [8]  6E 00 0F FD 01 0C D5 66
 (1743344805.207904)  can0  1DA   [8]  C8 64 18 00 00 01 03 1A
 (1743344805.208764)  can0  1D4   [8]  F7 07 00 00 87 46 00 70
 (1743344805.208795)  can0  1F2   [8]  10 64 00 00 00 1E 02 0E
 (1743344805.208796)  can0  50C   [6]  00 00 00 03 5D F4
 (1743344805.210335)  can0  11A   [8]  01 40 00 AA 80 00 03 CE
 (1743344805.211730)  can0  1DB   [8]  FF C0 C6 6A 00 00 02 BC
 (1743344805.212049)  can0  1DC   [8]  6E 00 0F FD 05 08 C6 BA
 (1743344805.213074)  can0  1DA   [8]  C8 64 18 00 00 01 00 10
 (1743344805.218607)  can0  1D4   [8]  F7 07 00 00 C7 46 00 B7
 (1743344805.219038)  can0  1F2   [8]  10 64 00 00 00 1E 03 0F
 (1743344805.219122)  can0  284   [8]  00 00 00 00 00 00 EF 75
 (1743344805.219414)  can0  11A   [8]  01 40 00 AA C0 00 00 03
 (1743344805.221943)  can0  1DB   [8]  FF C0 C6 6A 00 00 03 39
 (1743344805.222265)  can0  1DC   [8]  6E 00 0F FD 08 C0 C3 F1
 (1743344805.222508)  can0  55B   [8]  EF C0 55 00 E7 00 11 BA
 (1743344805.223071)  can0  1DA   [8]  C8 64 18 00 00 01 01 95
 (1743344805.229186)  can0  1D4   [8]  F7 07 00 00 07 46 00 7B
 (1743344805.229447)  can0  1F2   [8]  10 64 00 00 00 1E 00 0C
 (1743344805.229572)  can0  50A   [6]  85 72 A0 15 80 A0
 (1743344805.230329)  can0  11A   [8]  01 40 00 55 00 00 01 15
 (1743344805.232074)  can0  1DB   [8]  FF E0 C6 6A 00 00 00 62
 (1743344805.232544)  can0  1DC   [8]  6E 00 0F FD 0C CC D8 BD
 (1743344805.233152)  can0  1DA   [8]  C8 64 18 00 00 01 02 9F
 (1743344805.239154)  can0  1D4   [8]  F7 07 00 00 47 46 00 BC
 (1743344805.240178)  can0  1F2   [8]  10 64 00 00 00 1E 01 0D
 (1743344805.241261)  can0  284   [8]  00 00 00 00 00 00 F0 76
 (1743344805.241314)  can0  11A   [8]  01 40 00 55 40 00 02 D8
 (1743344805.242604)  can0  1DB   [8]  FF E0 C6 6A 00 00 01 E7
 (1743344805.242654)  can0  1DC   [8]  6E 00 0F FD 01 0C D5 66
 (1743344805.243473)  can0  1DA   [8]  C8 64 18 00 00 01 03 1A
 (1743344805.250418)  can0  1D4   [8]  F7 07 00 00 87 46 00 70
 (1743344805.250535)  can0  1F2   [8]  10 64 00 00 00 1E 02 0E
 (1743344805.250708)  can0  50B   [6]  00 00 06 C0 00 60
 (1743344805.250713)  can0  11A   [8]  01 40 00 AA 80 00 03 CE
 (1743344805.251949)  can0  1DB   [8]  FF E0 C6 6A 00 00 02 ED
 (1743344805.252468)  can0  1DC   [8]  6E 00 0F FD 05 08 C6 BA
 (1743344805.252976)  can0  54A   [8]  12 00 70 02 00 00 00 36
 (1743344805.253916)  can0  1DA   [8]  C8 64 18 00 00 01 00 10
 (1743344805.253996)  can0  54B   [8]  01 08 80 12 04 00 00 00
 (1743344805.254733)  can0  54C   [8]  93 66 00 00 00 00 6C 00
 (1743344805.255778)  can0  54F   [8]  35 01 00 00 07 00 88 34
 (1743344805.259891)  can0  11A   [8]  01 40 00 AA C0 00 00 03
 (1743344805.260451)  can0  1D4   [8]  F7 07 00 00 C7 46 00 B7
 (1743344805.260789)  can0  1F2   [8]  10 64 00 00 00 1E 03 0F
 (1743344805.260861)  can0  284   [8]  00 00 00 00 00 00 F1 77
 (1743344805.262222)  can0  1DB   [8]  FF E0 C6 6A 00 00 03 68
 (1743344805.262328)  can0  1DC   [8]  6E 00 0F FD 08 C0 C3 F1
 (1743344805.263262)  can0  1DA   [8]  C8 64 18 00 00 01 01 95
 (1743344805.266426)  can0  79B   [8]  02 21 04 00 00 00 00 00
 (1743344805.269934)  can0  1D4   [8]  F7 07 00 00 07 46 00 7B
 (1743344805.270682)  can0  1F2   [8]  10 64 00 00 00 1E 00 0C
 (1743344805.270750)  can0  11A   [8]  01 40 00 55 00 00 01 15
 (1743344805.271907)  can0  1DB   [8]  FF E0 C6 6A 00 00 00 62
 (1743344805.272479)  can0  1DC   [8]  6E 00 0F FD 0C CC D8 BD
 (1743344805.273261)  can0  1DA   [8]  C8 64 18 00 00 01 02 9F
 (1743344805.273717)  can0  55A   [8]  00 38 35 00 5F 38 5B 08
 (1743344805.275089)  can0  7BB   [8]  10 10 61 04 02 5F 0B 02
 (1743344805.275809)  can0  79B   [8]  30 00 00 00 00 00 00 00
 (1743344805.280724)  can0  11A   [8]  01 40 00 55 40 00 02 D8
 (1743344805.281462)  can0  1D4   [8]  F7 07 00 00 47 46 00 BC
 (1743344805.281514)  can0  1F2   [8]  10 64 00 00 00 1E 01 0D
 (1743344805.282793)  can0  284   [8]  00 00 00 00 00 00 F2 78
 (1743344805.282849)  can0  380   [8]  02 04 10 21 00 00 00 B0
 (1743344805.282853)  can0  5BF   [8]  00 00 00 00 28 00 00 09
 (1743344805.283479)  can0  1DB   [8]  FF C0 C6 6A 00 00 01 B6
 (1743344805.283712)  can0  1DC   [8]  6E 00 0F FD 01 0C D5 66
 (1743344805.283777)  can0  1DA   [8]  C8 64 18 00 00 01 03 1A
 (1743344805.284919)  can0  7BB   [8]  21 6A 0A 02 64 0A 02 6A
 (1743344805.290755)  can0  11A   [8]  01 40 00 AA 80 00 03 CE
 (1743344805.290809)  can0  1D4   [8]  F7 07 00 00 87 46 00 70
 (1743344805.291466)  can0  1F2   [8]  10 64 00 00 00 1E 02 0E
 (1743344805.292452)  can0  1DB   [8]  FF C0 C6 6A 00 00 02 BC
 (1743344805.292543)  can0  1DC   [8]  6E 00 0F FD 05 08 C6 BA
 (1743344805.293342)  can0  1DA   [8]  C8 64 18 00 00 01 00 10
 (1743344805.294640)  can0  7BB   [8]  22 0A 0A 00 FF FF FF FF
 (1743344805.300050)  can0  11A   [8]  01 40 00 AA C0 00 00 03
 (1743344805.300606)  can0  56E   [1]  46
 (1743344805.301460)  can0  1D4   [8]  F7 07 00 00 C7 46 00 B7
 (1743344805.301585)  can0  1F2   [8]  10 64 00 00 00 1E 03 0F
 (1743344805.301589)  can0  284   [8]  00 00 00 00 00 00 F3 79
 (1743344805.302428)  can0  1DB   [8]  FF E0 C6 6A 00 00 03 68
 (1743344805.302490)  can0  1DC   [8]  6E 00 0F FD 08 C0 C3 F1
 (1743344805.303334)  can0  1DA   [8]  C8 64 18 00 00 01 01 95
 (1743344805.310585)  can0  11A   [8]  01 40 00 55 00 00 01 15
 (1743344805.311602)  can0  1D4   [8]  F7 07 00 00 07 46 00 7B
 (1743344805.311636)  can0  1F2   [8]  10 64 00 00 00 1E 00 0C
 (1743344805.311638)  can0  50C   [6]  00 00 00 00 B2 A6
 (1743344805.312398)  can0  1DB   [8]  FF C0 C6 6A 00 00 00 33
 (1743344805.312457)  can0  1DC   [8]  6E 00 0F FD 0C CC D8 BD
 (1743344805.313537)  can0  1DA   [8]  C8 64 18 00 00 01 02 9F
 (1743344805.320223)  can0  11A   [8]  01 40 00 55 40 00 02 D8
 (1743344805.321149)  can0  1D4   [8]  F7 07 00 00 47 46 00 BC
 (1743344805.321958)  can0  1F2   [8]  10 64 00 00 00 1E 01 0D
 (1743344805.322019)  can0  284   [8]  00 00 00 00 00 00 F4 7A
 (1743344805.323522)  can0  1DB   [8]  FF C0 C6 6A 00 00 01 B6
 (1743344805.323575)  can0  1DC   [8]  6E 00 0F FD 01 0C D5 66
 (1743344805.323577)  can0  55B   [8]  EF C0 55 00 E7 00 12 B0
 (1743344805.323595)  can0  1DA   [8]  C8 64 18 00 00 01 03 1A
 (1743344805.330682)  can0  11A   [8]  01 40 00 AA 80 00 03 CE
 (1743344805.331400)  can0  1D4   [8]  F7 07 00 00 87 46 00 70
 (1743344805.332695)  can0  1F2   [8]  10 64 00 00 00 1E 02 0E
 (1743344805.332799)  can0  50A   [6]  85 12 A0 15 80 A0
 (1743344805.332805)  can0  1DB   [8]  FF C0 C6 6A 00 00 02 BC
 (1743344805.332806)  can0  1DC   [8]  6E 00 0F FD 05 08 C6 BA
 (1743344805.333277)  can0  1DA   [8]  C8 64 18 00 00 01 00 10
 (1743344805.339722)  can0  11A   [8]  01 40 00 AA C0 00 00 03
 (1743344805.342131)  can0  1D4   [8]  F7 07 00 00 C7 46 00 B7
 (1743344805.342193)  can0  1F2   [8]  10 64 00 00 00 1E 03 0F
 (1743344805.342901)  can0  1DB   [8]  FF C0 C6 6A 00 00 03 39
 (1743344805.343006)  can0  1DC   [8]  6E 00 0F FD 08 C0 C3 F1
 (1743344805.343008)  can0  284   [8]  00 00 00 00 00 00 F5 7B
 (1743344805.343717)  can0  1DA   [8]  C8 64 18 00 00 01 01 95
 (1743344805.354804)  can0  11A   [8]  01 40 00 55 00 00 01 15
 (1743344805.354856)  can0  1D4   [8]  F7 07 00 00 07 46 00 7B
 (1743344805.354858)  can0  1DB   [8]  FF C0 C6 6A 00 00 00 33
 (1743344805.354858)  can0  1DC   [8]  6E 00 0F FD 0C CC D8 BD
 (1743344805.354859)  can0  1F2   [8]  10 64 00 00 00 1E 00 0C
 (1743344805.354860)  can0  50B   [6]  00 00 06 C0 00 60
 (1743344805.354861)  can0  54A   [8]  A0 00 70 02 00 00 00 36
 (1743344805.354863)  can0  1DA   [8]  C8 64 18 00 00 01 02 9F
 (1743344805.354864)  can0  54B   [8]  01 08 80 12 04 00 00 00
 (1743344805.354875)  can0  54C   [8]  93 66 00 00 00 00 6C 00
 (1743344805.355752)  can0  54F   [8]  35 01 00 00 07 40 88 34
 (1743344805.360164)  can0  11A   [8]  01 40 00 55 40 00 02 D8
 (1743344805.361875)  can0  1DB   [8]  FF A0 C6 6A 00 00 01 45
 (1743344805.362484)  can0  1D4   [8]  F7 07 00 00 47 46 00 BC
 (1743344805.362508)  can0  1DC   [8]  6E 00 0F FD 01 0C D5 66
 (1743344805.362542)  can0  1F2   [8]  10 64 00 00 00 1E 01 0D
 (1743344805.362774)  can0  284   [8]  00 00 00 00 00 00 F6 7C
 (1743344805.363029)  can0  1DA   [8]  C8 64 18 00 00 01 03 1A
 (1743344805.370382)  can0  11A   [8]  01 40 00 AA 80 00 03 CE
 (1743344805.371997)  can0  1DB   [8]  FF A0 C6 6A 00 00 02 4F
 (1743344805.372990)  can0  1DC   [8]  6E 00 0F FD 05 08 C6 BA
 (1743344805.373045)  can0  1D4   [8]  F7 07 00 00 87 46 00 70
 (1743344805.373047)  can0  1F2   [8]  10 64 00 00 00 1E 02 0E
 (1743344805.374519)  can0  1DA   [8]  C8 64 18 00 00 01 00 10
 (1743344805.374582)  can0  55A   [8]  00 38 35 00 5F 38 5B 08
 (1743344805.379954)  can0  11A   [8]  01 40 00 AA C0 00 00 03
 (1743344805.381288)  can0  380   [8]  02 04 10 21 00 00 00 8D
 (1743344805.381355)  can0  5BF   [8]  00 00 00 00 28 00 00 1A
 (1743344805.383762)  can0  1DB   [8]  FF A0 C6 6A 00 00 03 CA
 (1743344805.383838)  can0  1DC   [8]  6E 00 0F FD 08 C0 C3 F1
 (1743344805.383841)  can0  1D4   [8]  F7 07 00 00 C7 46 00 B7
 (1743344805.383845)  can0  1F2   [8]  10 64 00 00 00 1E 03 0F
 (1743344805.383847)  can0  284   [8]  00 00 00 00 00 00 F7 7D
 (1743344805.383848)  can0  1DA   [8]  C8 64 18 00 00 01 01 95
 (1743344805.390509)  can0  11A   [8]  01 40 00 55 00 00 01 15
 (1743344805.391984)  can0  1DB   [8]  FF C0 C6 6A 00 00 00 33
 (1743344805.392500)  can0  1DC   [8]  6E 00 0F FD 0C CC D8 BD
 (1743344805.393365)  can0  1D4   [8]  F7 07 00 00 07 46 00 7B
 (1743344805.393394)  can0  1F2   [8]  10 64 00 00 00 1E 00 0C
 (1743344805.393952)  can0  1DA   [8]  C8 64 18 00 00 01 02 9F
 (1743344805.400316)  can0  11A   [8]  01 40 00 55 40 00 02 D8
 (1743344805.402006)  can0  1DB   [8]  FF A0 C6 6A 00 00 01 45
 (1743344805.402716)  can0  1DC   [8]  6E 00 0F FD 01 0C D5 66
 (1743344805.402763)  can0  56E   [1]  46
 (1743344805.404021)  can0  1D4   [8]  F7 07 00 00 47 46 00 BC
 (1743344805.404133)  can0  1DA   [8]  C8 64 18 00 00 01 03 1A
 (1743344805.404135)  can0  1F2   [8]  10 64 00 00 00 1E 01 0D
 (1743344805.404137)  can0  284   [8]  00 00 00 00 00 00 F8 7E
 (1743344805.410516)  can0  11A   [8]  01 40 00 AA 80 00 03 CE
 (1743344805.411878)  can0  1DB   [8]  FF A0 C6 6A 00 00 02 4F
 (1743344805.412295)  can0  1DC   [8]  6E 00 0F FD 05 08 C6 BA
 (1743344805.413151)  can0  1DA   [8]  C8 64 18 00 00 01 00 10
 (1743344805.413506)  can0  1D4   [8]  F7 07 00 00 87 46 00 70
 (1743344805.414022)  can0  1F2   [8]  10 64 00 00 00 1E 02 0E
 (1743344805.414064)  can0  50C   [6]  00 00 00 01 B2 31
 (1743344805.419679)  can0  11A   [8]  01 40 00 AA C0 00 00 03
 (1743344805.422156)  can0  1DB   [8]  FF A0 C6 6A 00 00 03 CA
 (1743344805.422934)  can0  1DC   [8]  6E 00 0F FD 08 C0 C3 F1
 (1743344805.422992)  can0  55B   [8]  EF C0 55 00 E7 00 13 35
 (1743344805.424290)  can0  1DA   [8]  C8 64 18 00 00 01 01 95
 (1743344805.424423)  can0  1D4   [8]  F7 07 00 00 C7 46 00 B7
 (1743344805.424426)  can0  1F2   [8]  10 64 00 00 00 1E 03 0F
 (1743344805.424464)  can0  284   [8]  00 00 00 00 00 00 F9 7F
 (1743344805.430468)  can0  11A   [8]  01 40 00 55 00 00 01 15
 (1743344805.432669)  can0  1DB   [8]  FF A0 C6 6A 00 00 00 C0
 (1743344805.432738)  can0  1DC   [8]  6E 00 0F FD 0C CC D8 BD
 (1743344805.433265)  can0  1DA   [8]  C8 64 18 00 00 01 02 9F
 (1743344805.434524)  can0  1D4   [8]  F7 07 00 00 07 46 00 7B
 (1743344805.434643)  can0  1F2   [8]  10 64 00 00 00 1E 00 0C
 (1743344805.434646)  can0  50A   [6]  85 32 A0 15 80 A0
 (1743344805.440052)  can0  11A   [8]  01 40 00 55 40 00 02 D8
 (1743344805.442337)  can0  1DB   [8]  FF A0 C6 6A 00 00 01 45
 (1743344805.442398)  can0  1DC   [8]  6E 00 0F FD 01 0C D5 66
 (1743344805.443272)  can0  1DA   [8]  C8 64 18 00 00 01 03 1A
 (1743344805.444771)  can0  1D4   [8]  F7 07 00 00 47 46 00 BC
 (1743344805.444872)  can0  1F2   [8]  10 64 00 00 00 1E 01 0D
 (1743344805.444875)  can0  284   [8]  00 00 00 00 00 00 FA 80
 (1743344805.450635)  can0  11A   [8]  01 40 00 AA 80 00 03 CE
 (1743344805.451928)  can0  1DB   [8]  FF C0 C6 6A 00 00 02 BC
